Time [s],Packet ID,Address,Data,Read/Write,ACK/NAK
0.0002110000,2,90,94,Write,ACK
0.0004170000,3,90,0,Read,NAK
0.0006310000,5,90,94,Write,ACK
0.0007260000,5,90,0,Write,ACK
0.0009370000,7,90,128,Write,ACK
0.0010330000,7,90,99,Write,ACK
0.0012440000,9,90,94,Write,ACK
0.0013390000,9,90,0,Write,ACK
0.0120980000,11,90,0,Write,ACK
0.0123050000,12,90,0,Read,NAK
0.0132180000,14,90,1,Write,ACK
0.0134250000,15,90,0,Read,NAK
0.0142180000,17,90,2,Write,ACK
0.0144250000,18,90,0,Read,NAK
0.0152190000,20,90,3,Write,ACK
0.0154250000,21,90,0,Read,NAK
0.0162190000,23,90,4,Write,ACK
0.0164250000,24,90,0,Read,NAK
0.0171360000,26,90,5,Write,ACK
0.0173430000,27,90,0,Read,NAK
0.0182790000,29,90,6,Write,ACK
0.0184850000,30,90,0,Read,NAK
0.0192200000,32,90,7,Write,ACK
0.0194260000,33,90,0,Read,NAK
0.0202200000,35,90,8,Write,ACK
0.0204270000,36,90,0,Read,NAK
0.0212200000,38,90,9,Write,ACK
0.0214270000,39,90,0,Read,NAK
0.0222200000,41,90,10,Write,ACK
0.0224270000,42,90,0,Read,NAK
0.0232200000,44,90,11,Write,ACK
0.0234270000,45,90,0,Read,NAK
0.0242200000,47,90,12,Write,ACK
0.0244270000,48,90,0,Read,NAK
0.0252210000,50,90,13,Write,ACK
0.0254280000,51,90,0,Read,NAK
0.0262210000,53,90,14,Write,ACK
0.0264280000,54,90,0,Read,NAK
0.0272210000,56,90,15,Write,ACK
0.0274280000,57,90,0,Read,NAK
0.0282220000,59,90,16,Write,ACK
0.0284290000,60,90,0,Read,NAK
0.0292220000,62,90,17,Write,ACK
0.0294290000,63,90,0,Read,NAK
0.0302230000,65,90,18,Write,ACK
0.0304290000,66,90,0,Read,NAK
0.0312230000,68,90,19,Write,ACK
0.0314300000,69,90,0,Read,NAK
0.0322230000,71,90,20,Write,ACK
0.0324300000,72,90,0,Read,NAK
0.0330990000,74,90,21,Write,ACK
0.0333060000,75,90,0,Read,NAK
0.0342230000,77,90,22,Write,ACK
0.0344300000,78,90,0,Read,NAK
0.0352240000,80,90,23,Write,ACK
0.0354300000,81,90,0,Read,NAK
0.0362240000,83,90,24,Write,ACK
0.0364300000,84,90,0,Read,NAK
0.0372240000,86,90,25,Write,ACK
0.0374310000,87,90,0,Read,NAK
0.0382240000,89,90,26,Write,ACK
0.0384310000,90,90,0,Read,NAK
0.0392250000,92,90,27,Write,ACK
0.0394310000,93,90,0,Read,NAK
0.0402250000,95,90,28,Write,ACK
0.0404310000,96,90,0,Read,NAK
0.0412250000,98,90,29,Write,ACK
0.0414320000,99,90,0,Read,NAK
0.0422250000,101,90,30,Write,ACK
0.0424320000,102,90,0,Read,NAK
0.0432250000,104,90,31,Write,ACK
0.0434320000,105,90,0,Read,NAK
0.0442260000,107,90,32,Write,ACK
0.0444320000,108,90,0,Read,NAK
0.0452260000,110,90,33,Write,ACK
0.0454330000,111,90,0,Read,NAK
0.0462260000,113,90,34,Write,ACK
0.0464330000,114,90,0,Read,NAK
0.0472260000,116,90,35,Write,ACK
0.0474330000,117,90,0,Read,NAK
0.0482260000,119,90,36,Write,ACK
0.0484330000,120,90,0,Read,NAK
0.0491440000,122,90,37,Write,ACK
0.0493500000,123,90,0,Read,NAK
0.0502270000,125,90,38,Write,ACK
0.0504340000,126,90,0,Read,NAK
0.0512270000,128,90,39,Write,ACK
0.0514340000,129,90,0,Read,NAK
0.0522270000,131,90,40,Write,ACK
0.0524340000,132,90,0,Read,NAK
0.0532280000,134,90,41,Write,ACK
0.0534340000,135,90,0,Read,NAK
0.0542280000,137,90,42,Write,ACK
0.0544340000,138,90,0,Read,NAK
0.0552280000,140,90,43,Write,ACK
0.0554350000,141,90,0,Read,NAK
0.0562280000,143,90,44,Write,ACK
0.0564350000,144,90,0,Read,NAK
0.0572280000,146,90,45,Write,ACK
0.0574350000,147,90,0,Read,NAK
0.0582280000,149,90,46,Write,ACK
0.0584350000,150,90,0,Read,NAK
0.0592290000,152,90,47,Write,ACK
0.0594350000,153,90,0,Read,NAK
0.0602290000,155,90,48,Write,ACK
0.0604360000,156,90,0,Read,NAK
0.0612290000,158,90,49,Write,ACK
0.0614360000,159,90,0,Read,NAK
0.0622300000,161,90,50,Write,ACK
0.0624360000,162,90,0,Read,NAK
0.0632300000,164,90,51,Write,ACK
0.0634360000,165,90,0,Read,NAK
0.0642300000,167,90,52,Write,ACK
0.0644370000,168,90,0,Read,NAK
0.0651050000,170,90,53,Write,ACK
0.0653120000,171,90,0,Read,NAK
0.0662300000,173,90,54,Write,ACK
0.0664370000,174,90,0,Read,NAK
0.0672300000,176,90,55,Write,ACK
0.0674370000,177,90,0,Read,NAK
0.0682310000,179,90,56,Write,ACK
0.0684370000,180,90,0,Read,NAK
0.0692310000,182,90,57,Write,ACK
0.0694380000,183,90,0,Read,NAK
0.0702310000,185,90,58,Write,ACK
0.0704380000,186,90,0,Read,NAK
0.0712310000,188,90,59,Write,ACK
0.0714380000,189,90,0,Read,NAK
0.0722320000,191,90,60,Write,ACK
0.0724380000,192,90,0,Read,NAK
0.0732920000,194,90,61,Write,ACK
0.0734980000,195,90,0,Read,NAK
0.0742320000,197,90,62,Write,ACK
0.0744390000,198,90,0,Read,NAK
0.0752320000,200,90,63,Write,ACK
0.0754390000,201,90,0,Read,NAK
0.0762320000,203,90,64,Write,ACK
0.0764390000,204,90,0,Read,NAK
0.0772330000,206,90,65,Write,ACK
0.0774390000,207,90,0,Read,NAK
0.0782330000,209,90,66,Write,ACK
0.0784400000,210,90,0,Read,NAK
0.0792330000,212,90,67,Write,ACK
0.0794400000,213,90,0,Read,NAK
0.0802330000,215,90,68,Write,ACK
0.0804400000,216,90,0,Read,NAK
0.0811510000,218,90,69,Write,ACK
0.0813580000,219,90,0,Read,NAK
0.0822340000,221,90,70,Write,ACK
0.0824400000,222,90,0,Read,NAK
0.0832340000,224,90,71,Write,ACK
0.0834410000,225,90,0,Read,NAK
0.0842340000,227,90,72,Write,ACK
0.0844410000,228,90,0,Read,NAK
0.0852940000,230,90,73,Write,ACK
0.0855010000,231,90,0,Read,NAK
0.0862350000,233,90,74,Write,ACK
0.0864420000,234,90,0,Read,NAK
0.0872350000,236,90,75,Write,ACK
0.0874420000,237,90,0,Read,NAK
0.0882350000,239,90,76,Write,ACK
0.0884420000,240,90,0,Read,NAK
0.0892350000,242,90,77,Write,ACK
0.0894420000,243,90,0,Read,NAK
0.0902350000,245,90,78,Write,ACK
0.0904420000,246,90,0,Read,NAK
0.0912360000,248,90,79,Write,ACK
0.0914420000,249,90,0,Read,NAK
0.0922360000,251,90,80,Write,ACK
0.0924430000,252,90,0,Read,NAK
0.0932360000,254,90,81,Write,ACK
0.0934430000,255,90,0,Read,NAK
0.0942360000,257,90,82,Write,ACK
0.0944430000,258,90,0,Read,NAK
0.0952370000,260,90,83,Write,ACK
0.0954430000,261,90,0,Read,NAK
0.0962370000,263,90,84,Write,ACK
0.0964440000,264,90,0,Read,NAK
0.0971130000,266,90,85,Write,ACK
0.0973200000,267,90,0,Read,NAK
0.0982370000,269,90,86,Write,ACK
0.0984440000,270,90,0,Read,NAK
0.0992370000,272,90,87,Write,ACK
0.0994440000,273,90,0,Read,NAK
0.1002380000,275,90,88,Write,ACK
0.1004440000,276,90,0,Read,NAK
0.1012380000,278,90,89,Write,ACK
0.1014450000,279,90,0,Read,NAK
0.1022380000,281,90,90,Write,ACK
0.1024450000,282,90,0,Read,NAK
0.1032380000,284,90,91,Write,ACK
0.1034450000,285,90,0,Read,NAK
0.1042390000,287,90,92,Write,ACK
0.1044450000,288,90,16,Read,NAK
0.1052390000,290,90,93,Write,ACK
0.1054460000,291,90,36,Read,NAK
0.1062390000,293,90,94,Write,ACK
0.1064460000,294,90,0,Read,NAK
0.1072390000,296,90,95,Write,ACK
0.1074460000,297,90,0,Read,NAK
0.1082390000,299,90,96,Write,ACK
0.1084460000,300,90,0,Read,NAK
0.1092390000,302,90,97,Write,ACK
0.1094460000,303,90,0,Read,NAK
0.1102400000,305,90,98,Write,ACK
0.1104470000,306,90,0,Read,NAK
0.1112400000,308,90,99,Write,ACK
0.1114470000,309,90,0,Read,NAK
0.1122400000,311,90,100,Write,ACK
0.1124470000,312,90,0,Read,NAK
0.1131580000,314,90,101,Write,ACK
0.1133650000,315,90,0,Read,NAK
0.1142410000,317,90,102,Write,ACK
0.1144470000,318,90,0,Read,NAK
0.1152410000,320,90,103,Write,ACK
0.1154480000,321,90,0,Read,NAK
0.1162410000,323,90,104,Write,ACK
0.1164480000,324,90,0,Read,NAK
0.1172410000,326,90,105,Write,ACK
0.1174480000,327,90,0,Read,NAK
0.1182410000,329,90,106,Write,ACK
0.1184480000,330,90,0,Read,NAK
0.1192420000,332,90,107,Write,ACK
0.1194480000,333,90,0,Read,NAK
0.1202420000,335,90,108,Write,ACK
0.1204490000,336,90,0,Read,NAK
0.1212420000,338,90,109,Write,ACK
0.1214490000,339,90,0,Read,NAK
0.1222430000,341,90,110,Write,ACK
0.1224490000,342,90,0,Read,NAK
0.1232430000,344,90,111,Write,ACK
0.1234490000,345,90,0,Read,NAK
0.1242430000,347,90,112,Write,ACK
0.1244500000,348,90,0,Read,NAK
0.1252430000,350,90,113,Write,ACK
0.1254500000,351,90,0,Read,NAK
0.1262430000,353,90,114,Write,ACK
0.1264500000,354,90,0,Read,NAK
0.1272430000,356,90,115,Write,ACK
0.1274500000,357,90,0,Read,NAK
0.1282440000,359,90,116,Write,ACK
0.1284500000,360,90,0,Read,NAK
0.1291190000,362,90,117,Write,ACK
0.1293260000,363,90,0,Read,NAK
0.1302440000,365,90,118,Write,ACK
0.1304510000,366,90,0,Read,NAK
0.1312440000,368,90,119,Write,ACK
0.1314510000,369,90,0,Read,NAK
0.1322440000,371,90,120,Write,ACK
0.1324510000,372,90,0,Read,NAK
0.1332450000,374,90,121,Write,ACK
0.1334510000,375,90,0,Read,NAK
0.1342450000,377,90,122,Write,ACK
0.1344520000,378,90,0,Read,NAK
0.1352450000,380,90,123,Write,ACK
0.1354520000,381,90,0,Read,NAK
0.1362450000,383,90,124,Write,ACK
0.1364520000,384,90,0,Read,NAK
0.1372460000,386,90,125,Write,ACK
0.1374530000,387,90,0,Read,NAK
0.1382460000,389,90,126,Write,ACK
0.1384530000,390,90,0,Read,NAK
0.1390560000,392,90,94,Write,ACK
0.1392630000,393,90,0,Read,NAK
0.1394760000,395,90,94,Write,ACK
0.1395710000,395,90,0,Write,ACK
0.1397820000,397,90,93,Write,ACK
0.1399890000,398,90,36,Read,NAK
0.1402020000,400,90,94,Write,ACK
0.1404090000,401,90,0,Read,NAK
0.1406220000,403,90,94,Write,ACK
0.1407180000,403,90,0,Write,ACK
0.1409290000,405,90,65,Write,ACK
0.1410240000,405,90,12,Write,ACK
0.1412350000,407,90,94,Write,ACK
0.1413310000,407,90,0,Write,ACK
0.1415420000,409,90,94,Write,ACK
0.1417490000,410,90,0,Read,NAK
0.1419610000,412,90,94,Write,ACK
0.1420570000,412,90,0,Write,ACK
0.1422680000,414,90,66,Write,ACK
0.1423630000,414,90,6,Write,ACK
0.1425750000,416,90,94,Write,ACK
0.1426700000,416,90,0,Write,ACK
0.1428810000,418,90,94,Write,ACK
0.1430880000,419,90,0,Read,NAK
0.1433010000,421,90,94,Write,ACK
0.1433960000,421,90,0,Write,ACK
0.1436070000,423,90,67,Write,ACK
0.1437030000,423,90,12,Write,ACK
0.1439140000,425,90,94,Write,ACK
0.1440090000,425,90,0,Write,ACK
0.1442210000,427,90,94,Write,ACK
0.1444270000,428,90,0,Read,NAK
0.1446400000,430,90,94,Write,ACK
0.1447360000,430,90,0,Write,ACK
0.1449470000,432,90,68,Write,ACK
0.1450420000,432,90,6,Write,ACK
0.1452540000,434,90,94,Write,ACK
0.1453490000,434,90,0,Write,ACK
0.1455600000,436,90,94,Write,ACK
0.1457670000,437,90,0,Read,NAK
0.1459800000,439,90,94,Write,ACK
0.1460750000,439,90,0,Write,ACK
0.1462860000,441,90,69,Write,ACK
0.1463820000,441,90,12,Write,ACK
0.1465930000,443,90,94,Write,ACK
0.1466880000,443,90,0,Write,ACK
0.1468990000,445,90,94,Write,ACK
0.1471060000,446,90,0,Read,NAK
0.1473190000,448,90,94,Write,ACK
0.1474150000,448,90,0,Write,ACK
0.1476260000,450,90,70,Write,ACK
0.1477210000,450,90,6,Write,ACK
0.1479320000,452,90,94,Write,ACK
0.1480280000,452,90,0,Write,ACK
0.1482390000,454,90,94,Write,ACK
0.1484460000,455,90,0,Read,NAK
0.1486590000,457,90,94,Write,ACK
0.1487540000,457,90,0,Write,ACK
0.1489650000,459,90,71,Write,ACK
0.1490610000,459,90,12,Write,ACK
0.1492720000,461,90,94,Write,ACK
0.1493670000,461,90,0,Write,ACK
0.1495780000,463,90,94,Write,ACK
0.1497850000,464,90,0,Read,NAK
0.1499980000,466,90,94,Write,ACK
0.1500930000,466,90,0,Write,ACK
0.1503040000,468,90,72,Write,ACK
0.1504000000,468,90,6,Write,ACK
0.1506110000,470,90,94,Write,ACK
0.1507060000,470,90,0,Write,ACK
0.1509170000,472,90,94,Write,ACK
0.1511240000,473,90,0,Read,NAK
0.1513370000,475,90,94,Write,ACK
0.1514330000,475,90,0,Write,ACK
0.1516440000,477,90,73,Write,ACK
0.1517390000,477,90,12,Write,ACK
0.1519500000,479,90,94,Write,ACK
0.1520460000,479,90,0,Write,ACK
0.1522570000,481,90,94,Write,ACK
0.1524640000,482,90,0,Read,NAK
0.1526770000,484,90,94,Write,ACK
0.1527720000,484,90,0,Write,ACK
0.1529830000,486,90,74,Write,ACK
0.1530780000,486,90,6,Write,ACK
0.1532900000,488,90,94,Write,ACK
0.1533850000,488,90,0,Write,ACK
0.1535960000,490,90,94,Write,ACK
0.1538030000,491,90,0,Read,NAK
0.1540160000,493,90,94,Write,ACK
0.1541110000,493,90,0,Write,ACK
0.1543220000,495,90,75,Write,ACK
0.1544180000,495,90,12,Write,ACK
0.1546290000,497,90,94,Write,ACK
0.1547240000,497,90,0,Write,ACK
0.1549360000,499,90,94,Write,ACK
0.1551430000,500,90,0,Read,NAK
0.1553560000,502,90,94,Write,ACK
0.1554520000,502,90,0,Write,ACK
0.1556630000,504,90,76,Write,ACK
0.1557580000,504,90,6,Write,ACK
0.1559690000,506,90,94,Write,ACK
0.1560650000,506,90,0,Write,ACK
0.1562760000,508,90,94,Write,ACK
0.1564830000,509,90,0,Read,NAK
0.1566960000,511,90,94,Write,ACK
0.1567910000,511,90,0,Write,ACK
0.1570020000,513,90,77,Write,ACK
0.1570970000,513,90,12,Write,ACK
0.1573090000,515,90,94,Write,ACK
0.1574040000,515,90,0,Write,ACK
0.1576150000,517,90,94,Write,ACK
0.1578220000,518,90,0,Read,NAK
0.1580350000,520,90,94,Write,ACK
0.1581300000,520,90,0,Write,ACK
0.1583410000,522,90,78,Write,ACK
0.1584370000,522,90,6,Write,ACK
0.1586480000,524,90,94,Write,ACK
0.1587430000,524,90,0,Write,ACK
0.1589540000,526,90,94,Write,ACK
0.1591610000,527,90,0,Read,NAK
0.1593740000,529,90,94,Write,ACK
0.1594700000,529,90,0,Write,ACK
0.1596810000,531,90,79,Write,ACK
0.1597760000,531,90,12,Write,ACK
0.1599870000,533,90,94,Write,ACK
0.1600830000,533,90,0,Write,ACK
0.1602940000,535,90,94,Write,ACK
0.1605000000,536,90,0,Read,NAK
0.1607130000,538,90,94,Write,ACK
0.1608090000,538,90,0,Write,ACK
0.1610200000,540,90,80,Write,ACK
0.1611150000,540,90,6,Write,ACK
0.1613260000,542,90,94,Write,ACK
0.1614220000,542,90,0,Write,ACK
0.1616330000,544,90,94,Write,ACK
0.1618400000,545,90,0,Read,NAK
0.1620530000,547,90,94,Write,ACK
0.1621480000,547,90,0,Write,ACK
0.1623590000,549,90,81,Write,ACK
0.1624540000,549,90,12,Write,ACK
0.1626660000,551,90,94,Write,ACK
0.1627610000,551,90,0,Write,ACK
0.1629720000,553,90,94,Write,ACK
0.1631790000,554,90,0,Read,NAK
0.1633920000,556,90,94,Write,ACK
0.1634870000,556,90,0,Write,ACK
0.1636980000,558,90,82,Write,ACK
0.1637940000,558,90,6,Write,ACK
0.1640050000,560,90,94,Write,ACK
0.1641000000,560,90,0,Write,ACK
0.1643110000,562,90,94,Write,ACK
0.1645180000,563,90,0,Read,NAK
0.1647310000,565,90,94,Write,ACK
0.1648270000,565,90,0,Write,ACK
0.1650380000,567,90,83,Write,ACK
0.1651330000,567,90,12,Write,ACK
0.1653440000,569,90,94,Write,ACK
0.1654400000,569,90,0,Write,ACK
0.1656510000,571,90,94,Write,ACK
0.1658580000,572,90,0,Read,NAK
0.1660710000,574,90,94,Write,ACK
0.1661660000,574,90,0,Write,ACK
0.1663770000,576,90,84,Write,ACK
0.1664730000,576,90,6,Write,ACK
0.1666840000,578,90,94,Write,ACK
0.1667790000,578,90,0,Write,ACK
0.1669900000,580,90,94,Write,ACK
0.1671970000,581,90,0,Read,NAK
0.1674100000,583,90,94,Write,ACK
0.1675060000,583,90,0,Write,ACK
0.1677170000,585,90,85,Write,ACK
0.1678120000,585,90,12,Write,ACK
0.1680230000,587,90,94,Write,ACK
0.1681190000,587,90,0,Write,ACK
0.1683300000,589,90,94,Write,ACK
0.1685370000,590,90,0,Read,NAK
0.1687500000,592,90,94,Write,ACK
0.1688450000,592,90,0,Write,ACK
0.1690560000,594,90,86,Write,ACK
0.1691510000,594,90,6,Write,ACK
0.1693630000,596,90,94,Write,ACK
0.1694580000,596,90,0,Write,ACK
0.1696690000,598,90,94,Write,ACK
0.1698760000,599,90,0,Read,NAK
0.1700890000,601,90,94,Write,ACK
0.1701840000,601,90,0,Write,ACK
0.1703950000,603,90,87,Write,ACK
0.1704910000,603,90,12,Write,ACK
0.1707020000,605,90,94,Write,ACK
0.1707970000,605,90,0,Write,ACK
0.1710090000,607,90,94,Write,ACK
0.1712150000,608,90,0,Read,NAK
0.1714280000,610,90,94,Write,ACK
0.1715240000,610,90,0,Write,ACK
0.1717350000,612,90,88,Write,ACK
0.1718300000,612,90,6,Write,ACK
0.1720410000,614,90,94,Write,ACK
0.1721370000,614,90,0,Write,ACK
0.1723480000,616,90,94,Write,ACK
0.1725550000,617,90,0,Read,NAK
0.1727680000,619,90,94,Write,ACK
0.1728630000,619,90,0,Write,ACK
0.1730740000,621,90,43,Write,ACK
0.1731700000,621,90,1,Write,ACK
0.1733810000,623,90,94,Write,ACK
0.1734760000,623,90,0,Write,ACK
0.1736870000,625,90,94,Write,ACK
0.1738980000,626,90,0,Read,NAK
0.1741110000,628,90,94,Write,ACK
0.1742070000,628,90,0,Write,ACK
0.1744180000,630,90,44,Write,ACK
0.1745130000,630,90,1,Write,ACK
0.1747250000,632,90,94,Write,ACK
0.1748200000,632,90,0,Write,ACK
0.1750310000,634,90,94,Write,ACK
0.1752380000,635,90,0,Read,NAK
0.1754510000,637,90,94,Write,ACK
0.1755460000,637,90,0,Write,ACK
0.1757570000,639,90,45,Write,ACK
0.1758530000,639,90,14,Write,ACK
0.1760640000,641,90,94,Write,ACK
0.1761590000,641,90,0,Write,ACK
0.1763710000,643,90,94,Write,ACK
0.1765770000,644,90,0,Read,NAK
0.1767900000,646,90,94,Write,ACK
0.1768860000,646,90,0,Write,ACK
0.1770970000,648,90,46,Write,ACK
0.1771920000,648,90,0,Write,ACK
0.1774030000,650,90,94,Write,ACK
0.1774990000,650,90,0,Write,ACK
0.1777100000,652,90,94,Write,ACK
0.1779170000,653,90,0,Read,NAK
0.1781300000,655,90,94,Write,ACK
0.1782250000,655,90,0,Write,ACK
0.1784370000,657,90,47,Write,ACK
0.1785320000,657,90,1,Write,ACK
0.1787430000,659,90,94,Write,ACK
0.1788390000,659,90,0,Write,ACK
0.1790500000,661,90,94,Write,ACK
0.1792560000,662,90,0,Read,NAK
0.1794700000,664,90,94,Write,ACK
0.1795650000,664,90,0,Write,ACK
0.1797760000,666,90,48,Write,ACK
0.1798710000,666,90,5,Write,ACK
0.1800830000,668,90,94,Write,ACK
0.1801780000,668,90,0,Write,ACK
0.1803890000,670,90,94,Write,ACK
0.1805960000,671,90,0,Read,NAK
0.1808090000,673,90,94,Write,ACK
0.1809040000,673,90,0,Write,ACK
0.1811150000,675,90,49,Write,ACK
0.1812110000,675,90,1,Write,ACK
0.1814220000,677,90,94,Write,ACK
0.1815180000,677,90,0,Write,ACK
0.1817290000,679,90,94,Write,ACK
0.1819350000,680,90,0,Read,NAK
0.1821490000,682,90,94,Write,ACK
0.1822440000,682,90,0,Write,ACK
0.1824550000,684,90,50,Write,ACK
0.1825510000,684,90,0,Write,ACK
0.1827620000,686,90,94,Write,ACK
0.1828570000,686,90,0,Write,ACK
0.1830680000,688,90,94,Write,ACK
0.1832750000,689,90,0,Read,NAK
0.1834880000,691,90,94,Write,ACK
0.1835830000,691,90,0,Write,ACK
0.1837950000,693,90,51,Write,ACK
0.1838900000,693,90,0,Write,ACK
0.1841010000,695,90,94,Write,ACK
0.1841970000,695,90,0,Write,ACK
0.1844080000,697,90,94,Write,ACK
0.1846140000,698,90,0,Read,NAK
0.1848270000,700,90,94,Write,ACK
0.1849230000,700,90,0,Write,ACK
0.1851340000,702,90,52,Write,ACK
0.1852290000,702,90,0,Write,ACK
0.1854410000,704,90,94,Write,ACK
0.1855360000,704,90,0,Write,ACK
0.1857470000,706,90,94,Write,ACK
0.1859540000,707,90,0,Read,NAK
0.1861670000,709,90,94,Write,ACK
0.1862620000,709,90,0,Write,ACK
0.1864740000,711,90,53,Write,ACK
0.1865690000,711,90,0,Write,ACK
0.1867800000,713,90,94,Write,ACK
0.1868760000,713,90,0,Write,ACK
0.1870870000,715,90,94,Write,ACK
0.1872930000,716,90,0,Read,NAK
0.1875070000,718,90,94,Write,ACK
0.1876020000,718,90,0,Write,ACK
0.1878130000,720,90,91,Write,ACK
0.1879090000,720,90,0,Write,ACK
0.1881200000,722,90,94,Write,ACK
0.1882150000,722,90,0,Write,ACK
0.1884260000,724,90,94,Write,ACK
0.1886330000,725,90,0,Read,NAK
0.1888460000,727,90,94,Write,ACK
0.1889410000,727,90,0,Write,ACK
0.1891520000,729,90,92,Write,ACK
0.1892480000,729,90,16,Write,ACK
0.1894590000,731,90,94,Write,ACK
0.1895540000,731,90,0,Write,ACK
0.1897660000,733,90,94,Write,ACK
0.1899720000,734,90,0,Read,NAK
0.1901850000,736,90,94,Write,ACK
0.1902810000,736,90,0,Write,ACK
0.1904920000,738,90,93,Write,ACK
0.1905870000,738,90,32,Write,ACK
0.1907980000,740,90,94,Write,ACK
0.1908940000,740,90,0,Write,ACK
0.1911050000,742,90,94,Write,ACK
0.1913120000,743,90,0,Read,NAK
0.1915250000,745,90,94,Write,ACK
0.1916200000,745,90,140,Write,ACK
0.1921370000,747,90,0,Write,ACK
0.1923440000,748,90,0,Read,NAK
0.1931330000,750,90,1,Write,ACK
0.1933390000,751,90,0,Read,NAK
0.1942570000,753,90,2,Write,ACK
0.1944640000,754,90,0,Read,NAK
0.1952580000,756,90,3,Write,ACK
0.1954640000,757,90,0,Read,NAK
0.1962580000,759,90,4,Write,ACK
0.1964650000,760,90,197,Read,NAK
0.1972580000,762,90,5,Write,ACK
0.1974650000,763,90,0,Read,NAK
0.1982580000,765,90,6,Write,ACK
0.1984650000,766,90,172,Read,NAK
0.1992590000,768,90,7,Write,ACK
0.1994650000,769,90,0,Read,NAK
0.2002590000,771,90,8,Write,ACK
0.2004650000,772,90,174,Read,NAK
0.2012590000,774,90,9,Write,ACK
0.2014660000,775,90,0,Read,NAK
0.2022590000,777,90,10,Write,ACK
0.2024660000,778,90,173,Read,NAK
0.2032590000,780,90,11,Write,ACK
0.2034660000,781,90,0,Read,NAK
0.2042590000,783,90,12,Write,ACK
0.2044660000,784,90,176,Read,NAK
0.2052600000,786,90,13,Write,ACK
0.2054660000,787,90,0,Read,NAK
0.2062600000,789,90,14,Write,ACK
0.2064670000,790,90,177,Read,NAK
0.2072600000,792,90,15,Write,ACK
0.2074670000,793,90,0,Read,NAK
0.2082610000,795,90,16,Write,ACK
0.2084680000,796,90,196,Read,NAK
0.2091780000,798,90,17,Write,ACK
0.2093850000,799,90,0,Read,NAK
0.2102620000,801,90,18,Write,ACK
0.2104680000,802,90,65,Read,NAK
0.2112620000,804,90,19,Write,ACK
0.2114690000,805,90,1,Read,NAK
0.2122620000,807,90,20,Write,ACK
0.2124690000,808,90,59,Read,NAK
0.2132620000,810,90,21,Write,ACK
0.2134690000,811,90,1,Read,NAK
