Time [s],Packet ID,Address,Data,Read/Write,ACK/NAK
0.0002060000,2,90,94,Write,ACK
0.0004080000,3,90,0,Read,NAK
0.0006170000,5,90,94,Write,ACK
0.0007100000,5,90,0,Write,ACK
0.0009160000,7,90,128,Write,ACK
0.0010100000,7,90,99,Write,ACK
0.0012160000,9,90,94,Write,ACK
0.0013090000,9,90,0,Write,ACK
0.0118290000,11,90,0,Write,ACK
0.0120310000,12,90,0,Read,NAK
0.0125310000,14,90,1,Write,ACK
0.0127330000,15,90,0,Read,NAK
0.0135310000,17,90,2,Write,ACK
0.0137330000,18,90,0,Read,NAK
0.0145310000,20,90,3,Write,ACK
0.0147340000,21,90,0,Read,NAK
0.0154070000,23,90,4,Write,ACK
0.0156100000,24,90,0,Read,NAK
0.0165320000,26,90,5,Write,ACK
0.0167340000,27,90,0,Read,NAK
0.0175320000,29,90,6,Write,ACK
0.0177340000,30,90,0,Read,NAK
0.0185320000,32,90,7,Write,ACK
0.0187340000,33,90,0,Read,NAK
0.0195320000,35,90,8,Write,ACK
0.0197350000,36,90,0,Read,NAK
0.0205330000,38,90,9,Write,ACK
0.0207350000,39,90,0,Read,NAK
0.0215330000,41,90,10,Write,ACK
0.0217350000,42,90,0,Read,NAK
0.0225330000,44,90,11,Write,ACK
0.0227360000,45,90,0,Read,NAK
0.0235330000,47,90,12,Write,ACK
0.0237360000,48,90,0,Read,NAK
0.0245340000,50,90,13,Write,ACK
0.0247360000,51,90,0,Read,NAK
0.0255340000,53,90,14,Write,ACK
0.0257360000,54,90,0,Read,NAK
0.0265340000,56,90,15,Write,ACK
0.0267360000,57,90,0,Read,NAK
0.0275350000,59,90,16,Write,ACK
0.0277370000,60,90,0,Read,NAK
0.0285350000,62,90,17,Write,ACK
0.0287370000,63,90,0,Read,NAK
0.0295350000,65,90,18,Write,ACK
0.0297380000,66,90,0,Read,NAK
0.0305360000,68,90,19,Write,ACK
0.0307380000,69,90,0,Read,NAK
0.0314530000,71,90,20,Write,ACK
0.0316550000,72,90,0,Read,NAK
0.0325360000,74,90,21,Write,ACK
0.0327380000,75,90,0,Read,NAK
0.0335360000,77,90,22,Write,ACK
0.0337390000,78,90,0,Read,NAK
0.0345370000,80,90,23,Write,ACK
0.0347390000,81,90,0,Read,NAK
0.0356560000,83,90,24,Write,ACK
0.0358580000,84,90,0,Read,NAK
0.0365970000,86,90,25,Write,ACK
0.0367990000,87,90,0,Read,NAK
0.0375370000,89,90,26,Write,ACK
0.0377390000,90,90,0,Read,NAK
0.0385370000,92,90,27,Write,ACK
0.0387400000,93,90,0,Read,NAK
0.0395380000,95,90,28,Write,ACK
0.0397400000,96,90,0,Read,NAK
0.0405380000,98,90,29,Write,ACK
0.0407400000,99,90,0,Read,NAK
0.0415380000,101,90,30,Write,ACK
0.0417400000,102,90,0,Read,NAK
0.0425380000,104,90,31,Write,ACK
0.0427400000,105,90,0,Read,NAK
0.0435380000,107,90,32,Write,ACK
0.0437410000,108,90,0,Read,NAK
0.0445390000,110,90,33,Write,ACK
0.0447410000,111,90,0,Read,NAK
0.0455390000,113,90,34,Write,ACK
0.0457410000,114,90,0,Read,NAK
0.0465390000,116,90,35,Write,ACK
0.0467410000,117,90,0,Read,NAK
0.0474140000,119,90,36,Write,ACK
0.0476170000,120,90,0,Read,NAK
0.0485990000,122,90,37,Write,ACK
0.0488010000,123,90,0,Read,NAK
0.0495400000,125,90,38,Write,ACK
0.0497420000,126,90,0,Read,NAK
0.0505400000,128,90,39,Write,ACK
0.0507420000,129,90,0,Read,NAK
0.0515400000,131,90,40,Write,ACK
0.0517420000,132,90,0,Read,NAK
0.0525400000,134,90,41,Write,ACK
0.0527430000,135,90,0,Read,NAK
0.0535400000,137,90,42,Write,ACK
0.0537430000,138,90,0,Read,NAK
0.0545410000,140,90,43,Write,ACK
0.0547430000,141,90,0,Read,NAK
0.0556010000,143,90,44,Write,ACK
0.0558030000,144,90,0,Read,NAK
0.0565410000,146,90,45,Write,ACK
0.0567430000,147,90,0,Read,NAK
0.0575420000,149,90,46,Write,ACK
0.0577440000,150,90,0,Read,NAK
0.0585420000,152,90,47,Write,ACK
0.0587440000,153,90,0,Read,NAK
0.0595420000,155,90,48,Write,ACK
0.0597440000,156,90,0,Read,NAK
0.0605420000,158,90,49,Write,ACK
0.0607440000,159,90,0,Read,NAK
0.0615420000,161,90,50,Write,ACK
0.0617440000,162,90,0,Read,NAK
0.0625420000,164,90,51,Write,ACK
0.0627450000,165,90,0,Read,NAK
0.0634600000,167,90,52,Write,ACK
0.0636620000,168,90,0,Read,NAK
0.0645430000,170,90,53,Write,ACK
0.0647450000,171,90,0,Read,NAK
0.0655430000,173,90,54,Write,ACK
0.0657460000,174,90,0,Read,NAK
0.0665430000,176,90,55,Write,ACK
0.0667460000,177,90,0,Read,NAK
0.0675440000,179,90,56,Write,ACK
0.0677460000,180,90,0,Read,NAK
0.0685440000,182,90,57,Write,ACK
0.0687460000,183,90,0,Read,NAK
0.0695440000,185,90,58,Write,ACK
0.0697460000,186,90,0,Read,NAK
0.0705440000,188,90,59,Write,ACK
0.0707460000,189,90,0,Read,NAK
0.0715450000,191,90,60,Write,ACK
0.0717470000,192,90,0,Read,NAK
0.0725450000,194,90,61,Write,ACK
0.0727470000,195,90,0,Read,NAK
0.0735450000,197,90,62,Write,ACK
0.0737470000,198,90,0,Read,NAK
0.0745450000,200,90,63,Write,ACK
0.0747470000,201,90,0,Read,NAK
0.0755450000,203,90,64,Write,ACK
0.0757470000,204,90,0,Read,NAK
0.0765460000,206,90,65,Write,ACK
0.0767480000,207,90,0,Read,NAK
0.0775460000,209,90,66,Write,ACK
0.0777480000,210,90,0,Read,NAK
0.0785460000,212,90,67,Write,ACK
0.0787480000,213,90,0,Read,NAK
0.0794220000,215,90,68,Write,ACK
0.0796240000,216,90,0,Read,NAK
0.0805460000,218,90,69,Write,ACK
0.0807480000,219,90,0,Read,NAK
0.0815470000,221,90,70,Write,ACK
0.0817490000,222,90,0,Read,NAK
0.0825470000,224,90,71,Write,ACK
0.0827490000,225,90,0,Read,NAK
0.0835470000,227,90,72,Write,ACK
0.0837490000,228,90,0,Read,NAK
0.0845470000,230,90,73,Write,ACK
0.0847490000,231,90,0,Read,NAK
0.0856670000,233,90,74,Write,ACK
0.0858690000,234,90,0,Read,NAK
0.0866080000,236,90,75,Write,ACK
0.0868100000,237,90,0,Read,NAK
0.0875480000,239,90,76,Write,ACK
0.0877500000,240,90,0,Read,NAK
0.0885480000,242,90,77,Write,ACK
0.0887500000,243,90,0,Read,NAK
0.0895480000,245,90,78,Write,ACK
0.0897510000,246,90,0,Read,NAK
0.0905490000,248,90,79,Write,ACK
0.0907510000,249,90,0,Read,NAK
0.0915490000,251,90,80,Write,ACK
0.0917510000,252,90,0,Read,NAK
0.0925490000,254,90,81,Write,ACK
0.0927510000,255,90,0,Read,NAK
0.0935490000,257,90,82,Write,ACK
0.0937510000,258,90,0,Read,NAK
0.0945490000,260,90,83,Write,ACK
0.0947520000,261,90,0,Read,NAK
0.0954670000,263,90,84,Write,ACK
0.0956690000,264,90,0,Read,NAK
0.0965500000,266,90,85,Write,ACK
0.0967520000,267,90,0,Read,NAK
0.0975500000,269,90,86,Write,ACK
0.0977520000,270,90,0,Read,NAK
0.0985500000,272,90,87,Write,ACK
0.0987530000,273,90,0,Read,NAK
0.0995510000,275,90,88,Write,ACK
0.0997530000,276,90,0,Read,NAK
0.1005510000,278,90,89,Write,ACK
0.1007530000,279,90,0,Read,NAK
0.1015510000,281,90,90,Write,ACK
0.1017530000,282,90,0,Read,NAK
0.1025510000,284,90,91,Write,ACK
0.1027530000,285,90,0,Read,NAK
0.1035510000,287,90,92,Write,ACK
0.1037540000,288,90,16,Read,NAK
0.1045520000,290,90,93,Write,ACK
0.1047540000,291,90,36,Read,NAK
0.1055520000,293,90,94,Write,ACK
0.1057540000,294,90,0,Read,NAK
0.1065520000,296,90,95,Write,ACK
0.1067540000,297,90,0,Read,NAK
0.1075520000,299,90,96,Write,ACK
0.1077540000,300,90,0,Read,NAK
0.1085520000,302,90,97,Write,ACK
0.1087550000,303,90,0,Read,NAK
0.1095530000,305,90,98,Write,ACK
0.1097550000,306,90,0,Read,NAK
0.1105530000,308,90,99,Write,ACK
0.1107550000,309,90,0,Read,NAK
0.1114290000,311,90,100,Write,ACK
0.1116310000,312,90,0,Read,NAK
0.1125530000,314,90,101,Write,ACK
0.1127560000,315,90,0,Read,NAK
0.1135540000,317,90,102,Write,ACK
0.1137560000,318,90,0,Read,NAK
0.1145540000,320,90,103,Write,ACK
0.1147560000,321,90,0,Read,NAK
0.1155540000,323,90,104,Write,ACK
0.1157560000,324,90,0,Read,NAK
0.1165540000,326,90,105,Write,ACK
0.1167570000,327,90,0,Read,NAK
0.1175540000,329,90,106,Write,ACK
0.1177570000,330,90,0,Read,NAK
0.1185550000,332,90,107,Write,ACK
0.1187570000,333,90,0,Read,NAK
0.1195550000,335,90,108,Write,ACK
0.1197570000,336,90,0,Read,NAK
0.1205550000,338,90,109,Write,ACK
0.1207570000,339,90,0,Read,NAK
0.1215550000,341,90,110,Write,ACK
0.1217580000,342,90,0,Read,NAK
0.1225560000,344,90,111,Write,ACK
0.1227580000,345,90,0,Read,NAK
0.1235560000,347,90,112,Write,ACK
0.1237580000,348,90,0,Read,NAK
0.1245560000,350,90,113,Write,ACK
0.1247580000,351,90,0,Read,NAK
0.1255560000,353,90,114,Write,ACK
0.1257580000,354,90,0,Read,NAK
0.1265560000,356,90,115,Write,ACK
0.1267590000,357,90,0,Read,NAK
0.1274740000,359,90,116,Write,ACK
0.1276760000,360,90,0,Read,NAK
0.1285570000,362,90,117,Write,ACK
0.1287590000,363,90,0,Read,NAK
0.1295570000,365,90,118,Write,ACK
0.1297590000,366,90,0,Read,NAK
0.1305570000,368,90,119,Write,ACK
0.1307590000,369,90,0,Read,NAK
0.1315570000,371,90,120,Write,ACK
0.1317600000,372,90,0,Read,NAK
0.1325580000,374,90,121,Write,ACK
0.1327600000,375,90,0,Read,NAK
0.1335580000,377,90,122,Write,ACK
0.1337600000,378,90,0,Read,NAK
0.1345580000,380,90,123,Write,ACK
0.1347600000,381,90,0,Read,NAK
0.1356180000,383,90,124,Write,ACK
0.1358200000,384,90,0,Read,NAK
0.1366180000,386,90,125,Write,ACK
0.1368200000,387,90,0,Read,NAK
0.1375590000,389,90,126,Write,ACK
0.1377610000,390,90,0,Read,NAK
0.1383690000,392,90,94,Write,ACK
0.1385710000,393,90,0,Read,NAK
0.1387800000,395,90,94,Write,ACK
0.1388730000,395,90,0,Write,ACK
0.1390800000,397,90,93,Write,ACK
0.1392820000,398,90,36,Read,NAK
0.1394900000,400,90,94,Write,ACK
0.1396930000,401,90,0,Read,NAK
0.1399010000,403,90,94,Write,ACK
0.1399940000,403,90,0,Write,ACK
0.1402030000,405,90,65,Write,ACK
0.1402960000,405,90,12,Write,ACK
0.1405030000,407,90,94,Write,ACK
0.1405960000,407,90,0,Write,ACK
0.1408030000,409,90,94,Write,ACK
0.1410050000,410,90,0,Read,NAK
0.1412130000,412,90,94,Write,ACK
0.1413060000,412,90,0,Write,ACK
0.1415130000,414,90,66,Write,ACK
0.1416060000,414,90,6,Write,ACK
0.1418120000,416,90,94,Write,ACK
0.1419060000,416,90,0,Write,ACK
0.1421120000,418,90,94,Write,ACK
0.1423140000,419,90,0,Read,NAK
0.1425230000,421,90,94,Write,ACK
0.1426160000,421,90,0,Write,ACK
0.1428220000,423,90,67,Write,ACK
0.1429160000,423,90,12,Write,ACK
0.1431220000,425,90,94,Write,ACK
0.1432150000,425,90,0,Write,ACK
0.1434220000,427,90,94,Write,ACK
0.1436240000,428,90,0,Read,NAK
0.1438320000,430,90,94,Write,ACK
0.1439250000,430,90,0,Write,ACK
0.1441320000,432,90,68,Write,ACK
0.1442250000,432,90,6,Write,ACK
0.1444310000,434,90,94,Write,ACK
0.1445250000,434,90,0,Write,ACK
0.1447310000,436,90,94,Write,ACK
0.1449330000,437,90,0,Read,NAK
0.1451420000,439,90,94,Write,ACK
0.1452350000,439,90,0,Write,ACK
0.1454410000,441,90,69,Write,ACK
0.1455350000,441,90,12,Write,ACK
0.1457410000,443,90,94,Write,ACK
0.1458340000,443,90,0,Write,ACK
0.1460410000,445,90,94,Write,ACK
0.1462430000,446,90,0,Read,NAK
0.1464510000,448,90,94,Write,ACK
0.1465450000,448,90,0,Write,ACK
0.1467510000,450,90,70,Write,ACK
0.1468440000,450,90,6,Write,ACK
0.1470510000,452,90,94,Write,ACK
0.1471440000,452,90,0,Write,ACK
0.1473500000,454,90,94,Write,ACK
0.1475520000,455,90,0,Read,NAK
0.1477610000,457,90,94,Write,ACK
0.1478540000,457,90,0,Write,ACK
0.1480610000,459,90,71,Write,ACK
0.1481540000,459,90,12,Write,ACK
0.1483600000,461,90,94,Write,ACK
0.1484530000,461,90,0,Write,ACK
0.1486600000,463,90,94,Write,ACK
0.1488620000,464,90,0,Read,NAK
0.1490710000,466,90,94,Write,ACK
0.1491640000,466,90,0,Write,ACK
0.1493700000,468,90,72,Write,ACK
0.1494640000,468,90,6,Write,ACK
0.1496700000,470,90,94,Write,ACK
0.1497630000,470,90,0,Write,ACK
0.1499700000,472,90,94,Write,ACK
0.1501720000,473,90,0,Read,NAK
0.1503800000,475,90,94,Write,ACK
0.1504740000,475,90,0,Write,ACK
0.1506800000,477,90,73,Write,ACK
0.1507730000,477,90,12,Write,ACK
0.1509800000,479,90,94,Write,ACK
0.1510730000,479,90,0,Write,ACK
0.1512790000,481,90,94,Write,ACK
0.1514820000,482,90,0,Read,NAK
0.1516900000,484,90,94,Write,ACK
0.1517830000,484,90,0,Write,ACK
0.1519900000,486,90,74,Write,ACK
0.1520850000,486,90,6,Write,ACK
0.1522910000,488,90,94,Write,ACK
0.1523850000,488,90,0,Write,ACK
0.1525910000,490,90,94,Write,ACK
0.1527930000,491,90,0,Read,NAK
0.1530020000,493,90,94,Write,ACK
0.1530990000,493,90,0,Write,ACK
0.1533050000,495,90,75,Write,ACK
0.1533990000,495,90,12,Write,ACK
0.1536050000,497,90,94,Write,ACK
0.1536980000,497,90,0,Write,ACK
0.1539050000,499,90,94,Write,ACK
0.1541070000,500,90,0,Read,NAK
0.1543150000,502,90,94,Write,ACK
0.1544090000,502,90,0,Write,ACK
0.1546150000,504,90,76,Write,ACK
0.1547080000,504,90,6,Write,ACK
0.1549150000,506,90,94,Write,ACK
0.1550080000,506,90,0,Write,ACK
0.1552140000,508,90,94,Write,ACK
0.1554160000,509,90,0,Read,NAK
0.1556250000,511,90,94,Write,ACK
0.1557180000,511,90,0,Write,ACK
0.1559250000,513,90,77,Write,ACK
0.1560180000,513,90,12,Write,ACK
0.1562240000,515,90,94,Write,ACK
0.1563170000,515,90,0,Write,ACK
0.1565240000,517,90,94,Write,ACK
0.1567260000,518,90,0,Read,NAK
0.1569350000,520,90,94,Write,ACK
0.1570280000,520,90,0,Write,ACK
0.1572340000,522,90,78,Write,ACK
0.1573270000,522,90,6,Write,ACK
0.1575340000,524,90,94,Write,ACK
0.1576270000,524,90,0,Write,ACK
0.1578330000,526,90,94,Write,ACK
0.1580360000,527,90,0,Read,NAK
0.1582440000,529,90,94,Write,ACK
0.1583370000,529,90,0,Write,ACK
0.1585440000,531,90,79,Write,ACK
0.1586370000,531,90,12,Write,ACK
0.1588430000,533,90,94,Write,ACK
0.1589370000,533,90,0,Write,ACK
0.1591430000,535,90,94,Write,ACK
0.1593450000,536,90,0,Read,NAK
0.1595540000,538,90,94,Write,ACK
0.1596470000,538,90,0,Write,ACK
0.1598530000,540,90,80,Write,ACK
0.1599470000,540,90,6,Write,ACK
0.1601530000,542,90,94,Write,ACK
0.1602460000,542,90,0,Write,ACK
0.1604530000,544,90,94,Write,ACK
0.1606550000,545,90,0,Read,NAK
0.1608630000,547,90,94,Write,ACK
0.1609560000,547,90,0,Write,ACK
0.1611630000,549,90,81,Write,ACK
0.1612560000,549,90,12,Write,ACK
0.1614630000,551,90,94,Write,ACK
0.1615560000,551,90,0,Write,ACK
0.1617620000,553,90,94,Write,ACK
0.1619640000,554,90,0,Read,NAK
0.1621730000,556,90,94,Write,ACK
0.1622660000,556,90,0,Write,ACK
0.1624720000,558,90,82,Write,ACK
0.1625660000,558,90,6,Write,ACK
0.1627720000,560,90,94,Write,ACK
0.1628650000,560,90,0,Write,ACK
0.1630720000,562,90,94,Write,ACK
0.1632740000,563,90,0,Read,NAK
0.1634820000,565,90,94,Write,ACK
0.1635760000,565,90,0,Write,ACK
0.1637820000,567,90,83,Write,ACK
0.1638750000,567,90,12,Write,ACK
0.1640820000,569,90,94,Write,ACK
0.1641750000,569,90,0,Write,ACK
0.1643810000,571,90,94,Write,ACK
0.1645830000,572,90,0,Read,NAK
0.1647920000,574,90,94,Write,ACK
0.1648850000,574,90,0,Write,ACK
0.1650910000,576,90,84,Write,ACK
0.1651850000,576,90,6,Write,ACK
0.1653910000,578,90,94,Write,ACK
0.1654840000,578,90,0,Write,ACK
0.1656910000,580,90,94,Write,ACK
0.1658930000,581,90,0,Read,NAK
0.1661020000,583,90,94,Write,ACK
0.1661960000,583,90,0,Write,ACK
0.1664020000,585,90,85,Write,ACK
0.1664950000,585,90,12,Write,ACK
0.1667020000,587,90,94,Write,ACK
0.1667950000,587,90,0,Write,ACK
0.1670010000,589,90,94,Write,ACK
0.1672070000,590,90,0,Read,NAK
0.1674160000,592,90,94,Write,ACK
0.1675090000,592,90,0,Write,ACK
0.1677160000,594,90,86,Write,ACK
0.1678090000,594,90,6,Write,ACK
0.1680150000,596,90,94,Write,ACK
0.1681080000,596,90,0,Write,ACK
0.1683150000,598,90,94,Write,ACK
0.1685170000,599,90,0,Read,NAK
0.1687260000,601,90,94,Write,ACK
0.1688190000,601,90,0,Write,ACK
0.1690250000,603,90,87,Write,ACK
0.1691180000,603,90,12,Write,ACK
0.1693250000,605,90,94,Write,ACK
0.1694180000,605,90,0,Write,ACK
0.1696250000,607,90,94,Write,ACK
0.1698270000,608,90,0,Read,NAK
0.1700350000,610,90,94,Write,ACK
0.1701280000,610,90,0,Write,ACK
0.1703350000,612,90,88,Write,ACK
0.1704280000,612,90,6,Write,ACK
0.1706350000,614,90,94,Write,ACK
0.1707280000,614,90,0,Write,ACK
0.1709340000,616,90,94,Write,ACK
0.1711360000,617,90,0,Read,NAK
0.1713450000,619,90,94,Write,ACK
0.1714380000,619,90,0,Write,ACK
0.1716440000,621,90,43,Write,ACK
0.1717380000,621,90,1,Write,ACK
0.1719440000,623,90,94,Write,ACK
0.1720370000,623,90,0,Write,ACK
0.1722440000,625,90,94,Write,ACK
0.1724460000,626,90,0,Read,NAK
0.1726540000,628,90,94,Write,ACK
0.1727480000,628,90,0,Write,ACK
0.1729540000,630,90,44,Write,ACK
0.1730470000,630,90,1,Write,ACK
0.1732540000,632,90,94,Write,ACK
0.1733470000,632,90,0,Write,ACK
0.1735530000,634,90,94,Write,ACK
0.1737560000,635,90,0,Read,NAK
0.1739640000,637,90,94,Write,ACK
0.1740570000,637,90,0,Write,ACK
0.1742640000,639,90,45,Write,ACK
0.1743570000,639,90,14,Write,ACK
0.1745630000,641,90,94,Write,ACK
0.1746570000,641,90,0,Write,ACK
0.1748630000,643,90,94,Write,ACK
0.1750650000,644,90,0,Read,NAK
0.1752740000,646,90,94,Write,ACK
0.1753670000,646,90,0,Write,ACK
0.1755740000,648,90,46,Write,ACK
0.1756670000,648,90,0,Write,ACK
0.1758730000,650,90,94,Write,ACK
0.1759660000,650,90,0,Write,ACK
0.1761730000,652,90,94,Write,ACK
0.1763750000,653,90,0,Read,NAK
0.1765830000,655,90,94,Write,ACK
0.1766770000,655,90,0,Write,ACK
0.1768830000,657,90,47,Write,ACK
0.1769760000,657,90,1,Write,ACK
0.1771830000,659,90,94,Write,ACK
0.1772760000,659,90,0,Write,ACK
0.1774820000,661,90,94,Write,ACK
0.1776850000,662,90,0,Read,NAK
0.1778930000,664,90,94,Write,ACK
0.1779860000,664,90,0,Write,ACK
0.1781930000,666,90,48,Write,ACK
0.1782860000,666,90,5,Write,ACK
0.1784930000,668,90,94,Write,ACK
0.1785860000,668,90,0,Write,ACK
0.1787930000,670,90,94,Write,ACK
0.1789950000,671,90,0,Read,NAK
0.1792030000,673,90,94,Write,ACK
0.1792970000,673,90,0,Write,ACK
0.1795030000,675,90,49,Write,ACK
0.1795960000,675,90,1,Write,ACK
0.1798030000,677,90,94,Write,ACK
0.1798960000,677,90,0,Write,ACK
0.1801050000,679,90,94,Write,ACK
0.1803070000,680,90,0,Read,NAK
0.1805160000,682,90,94,Write,ACK
0.1806090000,682,90,0,Write,ACK
0.1808160000,684,90,50,Write,ACK
0.1809090000,684,90,0,Write,ACK
0.1811150000,686,90,94,Write,ACK
0.1812080000,686,90,0,Write,ACK
0.1814150000,688,90,94,Write,ACK
0.1816170000,689,90,0,Read,NAK
0.1818250000,691,90,94,Write,ACK
0.1819190000,691,90,0,Write,ACK
0.1821250000,693,90,51,Write,ACK
0.1822180000,693,90,0,Write,ACK
0.1824250000,695,90,94,Write,ACK
0.1825180000,695,90,0,Write,ACK
0.1827240000,697,90,94,Write,ACK
0.1829270000,698,90,0,Read,NAK
0.1831350000,700,90,94,Write,ACK
0.1832280000,700,90,0,Write,ACK
0.1834350000,702,90,52,Write,ACK
0.1835280000,702,90,0,Write,ACK
0.1837340000,704,90,94,Write,ACK
0.1838280000,704,90,0,Write,ACK
0.1840340000,706,90,94,Write,ACK
0.1842360000,707,90,0,Read,NAK
0.1844440000,709,90,94,Write,ACK
0.1845380000,709,90,0,Write,ACK
0.1847440000,711,90,53,Write,ACK
0.1848370000,711,90,0,Write,ACK
0.1850440000,713,90,94,Write,ACK
0.1851370000,713,90,0,Write,ACK
0.1853430000,715,90,94,Write,ACK
0.1855460000,716,90,0,Read,NAK
0.1857540000,718,90,94,Write,ACK
0.1858470000,718,90,0,Write,ACK
0.1860540000,720,90,91,Write,ACK
0.1861470000,720,90,0,Write,ACK
0.1863530000,722,90,94,Write,ACK
0.1864470000,722,90,0,Write,ACK
0.1866530000,724,90,94,Write,ACK
0.1868550000,725,90,0,Read,NAK
0.1870640000,727,90,94,Write,ACK
0.1871570000,727,90,0,Write,ACK
0.1873630000,729,90,92,Write,ACK
0.1874560000,729,90,16,Write,ACK
0.1876630000,731,90,94,Write,ACK
0.1877560000,731,90,0,Write,ACK
0.1879630000,733,90,94,Write,ACK
0.1881650000,734,90,0,Read,NAK
0.1883730000,736,90,94,Write,ACK
0.1884670000,736,90,0,Write,ACK
0.1886730000,738,90,93,Write,ACK
0.1887660000,738,90,32,Write,ACK
0.1889730000,740,90,94,Write,ACK
0.1890660000,740,90,0,Write,ACK
0.1892720000,742,90,94,Write,ACK
0.1894740000,743,90,0,Read,NAK
0.1896830000,745,90,94,Write,ACK
0.1897760000,745,90,140,Write,ACK
0.1904500000,747,90,0,Write,ACK
0.1906620000,,127,,Read,Missing ACK/NAK
0.1913940000,751,127,180,Read,ACK
0.1914870000,751,127,1,Read,ACK
0.1916890000,752,90,0,Read,NAK
0.1925700000,754,90,2,Write,ACK
0.1927720000,755,90,0,Read,NAK
0.1935700000,757,90,3,Write,ACK
0.1937720000,758,90,0,Read,NAK
0.1945700000,760,90,4,Write,ACK
0.1947730000,761,90,0,Read,NAK
0.1955710000,763,90,5,Write,ACK
0.1957730000,764,90,0,Read,NAK
0.1965710000,766,90,6,Write,ACK
0.1967730000,767,90,0,Read,NAK
0.1975710000,769,90,7,Write,ACK
0.1977730000,770,90,0,Read,NAK
0.1985710000,772,90,8,Write,ACK
0.1987730000,773,90,0,Read,NAK
0.1995720000,775,90,9,Write,ACK
0.1997740000,776,90,0,Read,NAK
0.2005720000,778,90,10,Write,ACK
0.2007740000,779,90,0,Read,NAK
0.2015720000,781,90,11,Write,ACK
0.2017740000,782,90,0,Read,NAK
0.2025720000,784,90,12,Write,ACK
0.2027740000,785,90,0,Read,NAK
0.2035720000,787,90,13,Write,ACK
0.2037750000,788,90,0,Read,NAK
0.2045730000,790,90,14,Write,ACK
0.2047750000,791,90,0,Read,NAK
0.2055730000,793,90,15,Write,ACK
0.2057750000,794,90,0,Read,NAK
0.2065740000,796,90,16,Write,ACK
0.2067760000,797,90,0,Read,NAK
0.2074490000,799,90,17,Write,ACK
0.2076510000,800,90,0,Read,NAK
0.2085740000,802,90,18,Write,ACK
0.2087760000,803,90,0,Read,NAK
0.2095740000,805,90,19,Write,ACK
0.2097770000,806,90,0,Read,NAK
0.2105740000,808,90,20,Write,ACK
0.2107770000,809,90,0,Read,NAK
0.2115750000,811,90,21,Write,ACK
