Time [s],Packet ID,Address,Data,Read/Write,ACK/NAK
0.0002110000,2,90,94,Write,ACK
0.0004170000,3,90,0,Read,NAK
0.0006310000,5,90,94,Write,ACK
0.0007260000,5,90,0,Write,ACK
0.0009370000,7,90,128,Write,ACK
0.0010330000,7,90,99,Write,ACK
0.0012440000,9,90,94,Write,ACK
0.0013390000,9,90,0,Write,ACK
0.0120980000,11,90,0,Write,ACK
0.0123050000,12,90,0,Read,NAK
0.0132180000,14,90,1,Write,ACK
0.0134250000,15,90,0,Read,NAK
0.0142180000,17,90,2,Write,ACK
0.0144250000,18,90,0,Read,NAK
0.0152190000,20,90,3,Write,ACK
0.0154250000,21,90,0,Read,NAK
0.0162190000,23,90,4,Write,ACK
0.0164250000,24,90,0,Read,NAK
0.0171360000,26,90,5,Write,ACK
0.0173430000,27,90,0,Read,NAK
0.0182790000,29,90,6,Write,ACK
0.0184850000,30,90,0,Read,NAK
0.0192200000,32,90,7,Write,ACK
0.0194260000,33,90,0,Read,NAK
0.0202200000,35,90,8,Write,ACK
0.0204270000,36,90,0,Read,NAK
0.0212200000,38,90,9,Write,ACK
0.0214270000,39,90,0,Read,NAK
0.0222200000,41,90,10,Write,ACK
0.0224270000,42,90,0,Read,NAK
0.0232200000,44,90,11,Write,ACK
0.0234270000,45,90,0,Read,NAK
0.0242200000,47,90,12,Write,ACK
0.0244270000,48,90,0,Read,NAK
0.0252210000,50,90,13,Write,ACK
0.0254280000,51,90,0,Read,NAK
0.0262210000,53,90,14,Write,ACK
0.0264280000,54,90,0,Read,NAK
0.0272210000,56,90,15,Write,ACK
0.0274280000,57,90,0,Read,NAK
0.0282220000,59,90,16,Write,ACK
0.0284290000,60,90,0,Read,NAK
0.0292220000,62,90,17,Write,ACK
0.0294290000,63,90,0,Read,NAK
0.0302230000,65,90,18,Write,ACK
0.0304290000,66,90,0,Read,NAK
0.0312230000,68,90,19,Write,ACK
0.0314300000,69,90,0,Read,NAK
0.0322230000,71,90,20,Write,ACK
0.0324300000,72,90,0,Read,NAK
0.0330990000,74,90,21,Write,ACK
0.0333060000,75,90,0,Read,NAK
0.0342230000,77,90,22,Write,ACK
0.0344300000,78,90,0,Read,NAK
0.0352240000,80,90,23,Write,ACK
0.0354300000,81,90,0,Read,NAK
0.0362240000,83,90,24,Write,ACK
0.0364300000,84,90,0,Read,NAK
0.0372240000,86,90,25,Write,ACK
0.0374310000,87,90,0,Read,NAK
0.0382240000,89,90,26,Write,ACK
0.0384310000,90,90,0,Read,NAK
0.0392250000,92,90,27,Write,ACK
0.0394310000,93,90,0,Read,NAK
0.0402250000,95,90,28,Write,ACK
0.0404310000,96,90,0,Read,NAK
0.0412250000,98,90,29,Write,ACK
0.0414320000,99,90,0,Read,NAK
0.0422250000,101,90,30,Write,ACK
0.0424320000,102,90,0,Read,NAK
0.0432250000,104,90,31,Write,ACK
0.0434320000,105,90,0,Read,NAK
0.0442260000,107,90,32,Write,ACK
0.0444320000,108,90,0,Read,NAK
0.0452260000,110,90,33,Write,ACK
0.0454330000,111,90,0,Read,NAK
0.0462260000,113,90,34,Write,ACK
0.0464330000,114,90,0,Read,NAK
0.0472260000,116,90,35,Write,ACK
0.0474330000,117,90,0,Read,NAK
0.0482260000,119,90,36,Write,ACK
0.0484330000,120,90,0,Read,NAK
0.0491440000,122,90,37,Write,ACK
0.0493500000,123,90,0,Read,NAK
0.0502270000,125,90,38,Write,ACK
0.0504340000,126,90,0,Read,NAK
0.0512270000,128,90,39,Write,ACK
0.0514340000,129,90,0,Read,NAK
0.0522270000,131,90,40,Write,ACK
0.0524340000,132,90,0,Read,NAK
0.0532280000,134,90,41,Write,ACK
0.0534340000,135,90,0,Read,NAK
0.0542280000,137,90,42,Write,ACK
0.0544340000,138,90,0,Read,NAK
0.0552280000,140,90,43,Write,ACK
0.0554350000,141,90,0,Read,NAK
0.0562280000,143,90,44,Write,ACK
0.0564350000,144,90,0,Read,NAK
0.0572280000,146,90,45,Write,ACK
0.0574350000,147,90,0,Read,NAK
0.0582280000,149,90,46,Write,ACK
0.0584350000,150,90,0,Read,NAK
0.0592290000,152,90,47,Write,ACK
0.0594350000,153,90,0,Read,NAK
0.0602290000,155,90,48,Write,ACK
0.0604360000,156,90,0,Read,NAK
0.0612290000,158,90,49,Write,ACK
0.0614360000,159,90,0,Read,NAK
0.0622300000,161,90,50,Write,ACK
0.0624360000,162,90,0,Read,NAK
0.0632300000,164,90,51,Write,ACK
0.0634360000,165,90,0,Read,NAK
0.0642300000,167,90,52,Write,ACK
0.0644370000,168,90,0,Read,NAK
0.0651050000,170,90,53,Write,ACK
0.0653120000,171,90,0,Read,NAK
0.0662300000,173,90,54,Write,ACK
0.0664370000,174,90,0,Read,NAK
0.0672300000,176,90,55,Write,ACK
0.0674370000,177,90,0,Read,NAK
0.0682310000,179,90,56,Write,ACK
0.0684370000,180,90,0,Read,NAK
0.0692310000,182,90,57,Write,ACK
0.0694380000,183,90,0,Read,NAK
0.0702310000,185,90,58,Write,ACK
0.0704380000,186,90,0,Read,NAK
0.0712310000,188,90,59,Write,ACK
0.0714380000,189,90,0,Read,NAK
0.0722320000,191,90,60,Write,ACK
0.0724380000,192,90,0,Read,NAK
0.0732920000,194,90,61,Write,ACK
0.0734980000,195,90,0,Read,NAK
0.0742320000,197,90,62,Write,ACK
0.0744390000,198,90,0,Read,NAK
0.0752320000,200,90,63,Write,ACK
0.0754390000,201,90,0,Read,NAK
0.0762320000,203,90,64,Write,ACK
0.0764390000,204,90,0,Read,NAK
0.0772330000,206,90,65,Write,ACK
0.0774390000,207,90,0,Read,NAK
0.0782330000,209,90,66,Write,ACK
0.0784400000,210,90,0,Read,NAK
0.0792330000,212,90,67,Write,ACK
0.0794400000,213,90,0,Read,NAK
0.0802330000,215,90,68,Write,ACK
0.0804400000,216,90,0,Read,NAK
0.0811510000,218,90,69,Write,ACK
0.0813580000,219,90,0,Read,NAK
0.0822340000,221,90,70,Write,ACK
0.0824400000,222,90,0,Read,NAK
0.0832340000,224,90,71,Write,ACK
0.0834410000,225,90,0,Read,NAK
0.0842340000,227,90,72,Write,ACK
0.0844410000,228,90,0,Read,NAK
0.0852940000,230,90,73,Write,ACK
0.0855010000,231,90,0,Read,NAK
0.0862350000,233,90,74,Write,ACK
0.0864420000,234,90,0,Read,NAK
0.0872350000,236,90,75,Write,ACK
0.0874420000,237,90,0,Read,NAK
0.0882350000,239,90,76,Write,ACK
0.0884420000,240,90,0,Read,NAK
0.0892350000,242,90,77,Write,ACK
0.0894420000,243,90,0,Read,NAK
0.0902350000,245,90,78,Write,ACK
0.0904420000,246,90,0,Read,NAK
0.0912360000,248,90,79,Write,ACK
0.0914420000,249,90,0,Read,NAK
0.0922360000,251,90,80,Write,ACK
0.0924430000,252,90,0,Read,NAK
0.0932360000,254,90,81,Write,ACK
0.0934430000,255,90,0,Read,NAK
0.0942360000,257,90,82,Write,ACK
0.0944430000,258,90,0,Read,NAK
0.0952370000,260,90,83,Write,ACK
0.0954430000,261,90,0,Read,NAK
0.0962370000,263,90,84,Write,ACK
0.0964440000,264,90,0,Read,NAK
0.0971130000,266,90,85,Write,ACK
0.0973200000,267,90,0,Read,NAK
0.0982370000,269,90,86,Write,ACK
0.0984440000,270,90,0,Read,NAK
0.0992370000,272,90,87,Write,ACK
0.0994440000,273,90,0,Read,NAK
0.1002380000,275,90,88,Write,ACK
0.1004440000,276,90,0,Read,NAK
0.1012380000,278,90,89,Write,ACK
0.1014450000,279,90,0,Read,NAK
0.1022380000,281,90,90,Write,ACK
0.1024450000,282,90,0,Read,NAK
0.1032380000,284,90,91,Write,ACK
0.1034450000,285,90,0,Read,NAK
0.1042390000,287,90,92,Write,ACK
0.1044450000,288,90,16,Read,NAK
0.1052390000,290,90,93,Write,ACK
0.1054460000,291,90,36,Read,NAK
0.1062390000,293,90,94,Write,ACK
0.1064460000,294,90,0,Read,NAK
0.1072390000,296,90,95,Write,ACK
0.1074460000,297,90,0,Read,NAK
0.1082390000,299,90,96,Write,ACK
0.1084460000,300,90,0,Read,NAK
0.1092390000,302,90,97,Write,ACK
0.1094460000,303,90,0,Read,NAK
0.1102400000,305,90,98,Write,ACK
0.1104470000,306,90,0,Read,NAK
0.1112400000,308,90,99,Write,ACK
0.1114470000,309,90,0,Read,NAK
0.1122400000,311,90,100,Write,ACK
0.1124470000,312,90,0,Read,NAK
0.1131580000,314,90,101,Write,ACK
0.1133650000,315,90,0,Read,NAK
0.1142410000,317,90,102,Write,ACK
0.1144470000,318,90,0,Read,NAK
0.1152410000,320,90,103,Write,ACK
0.1154480000,321,90,0,Read,NAK
0.1162410000,323,90,104,Write,ACK
0.1164480000,324,90,0,Read,NAK
0.1172410000,326,90,105,Write,ACK
0.1174480000,327,90,0,Read,NAK
0.1182410000,329,90,106,Write,ACK
0.1184480000,330,90,0,Read,NAK
0.1192420000,332,90,107,Write,ACK
0.1194480000,333,90,0,Read,NAK
0.1202420000,335,90,108,Write,ACK
0.1204490000,336,90,0,Read,NAK
0.1212420000,338,90,109,Write,ACK
0.1214490000,339,90,0,Read,NAK
0.1222430000,341,90,110,Write,ACK
0.1224490000,342,90,0,Read,NAK
0.1232430000,344,90,111,Write,ACK
0.1234490000,345,90,0,Read,NAK
0.1242430000,347,90,112,Write,ACK
0.1244500000,348,90,0,Read,NAK
0.1252430000,350,90,113,Write,ACK
0.1254500000,351,90,0,Read,NAK
0.1262430000,353,90,114,Write,ACK
0.1264500000,354,90,0,Read,NAK
0.1272430000,356,90,115,Write,ACK
0.1274500000,357,90,0,Read,NAK
0.1282440000,359,90,116,Write,ACK
0.1284500000,360,90,0,Read,NAK
0.1291190000,362,90,117,Write,ACK
0.1293260000,363,90,0,Read,NAK
0.1302440000,365,90,118,Write,ACK
0.1304510000,366,90,0,Read,NAK
0.1312440000,368,90,119,Write,ACK
0.1314510000,369,90,0,Read,NAK
0.1322440000,371,90,120,Write,ACK
0.1324510000,372,90,0,Read,NAK
0.1332450000,374,90,121,Write,ACK
0.1334510000,375,90,0,Read,NAK
0.1342450000,377,90,122,Write,ACK
0.1344520000,378,90,0,Read,NAK
0.1352450000,380,90,123,Write,ACK
0.1354520000,381,90,0,Read,NAK
0.1362450000,383,90,124,Write,ACK
0.1364520000,384,90,0,Read,NAK
0.1372460000,386,90,125,Write,ACK
0.1374530000,387,90,0,Read,NAK
0.1382460000,389,90,126,Write,ACK
0.1384530000,390,90,0,Read,NAK
0.1390560000,392,90,94,Write,ACK
0.1392630000,393,90,0,Read,NAK
0.1394760000,395,90,94,Write,ACK
0.1395710000,395,90,0,Write,ACK
0.1397820000,397,90,93,Write,ACK
0.1399890000,398,90,36,Read,NAK
0.1402020000,400,90,94,Write,ACK
0.1404090000,401,90,0,Read,NAK
0.1406220000,403,90,94,Write,ACK
0.1407180000,403,90,0,Write,ACK
0.1409290000,405,90,65,Write,ACK
0.1410240000,405,90,12,Write,ACK
0.1412350000,407,90,94,Write,ACK
0.1413310000,407,90,0,Write,ACK
0.1415420000,409,90,94,Write,ACK
0.1417490000,410,90,0,Read,NAK
0.1419610000,412,90,94,Write,ACK
0.1420570000,412,90,0,Write,ACK
0.1422680000,414,90,66,Write,ACK
0.1423630000,414,90,6,Write,ACK
0.1425750000,416,90,94,Write,ACK
0.1426700000,416,90,0,Write,ACK
0.1428810000,418,90,94,Write,ACK
0.1430880000,419,90,0,Read,NAK
0.1433010000,421,90,94,Write,ACK
0.1433960000,421,90,0,Write,ACK
0.1436070000,423,90,67,Write,ACK
0.1437030000,423,90,12,Write,ACK
0.1439140000,425,90,94,Write,ACK
0.1440090000,425,90,0,Write,ACK
0.1442210000,427,90,94,Write,ACK
0.1444270000,428,90,0,Read,NAK
0.1446400000,430,90,94,Write,ACK
0.1447360000,430,90,0,Write,ACK
0.1449470000,432,90,68,Write,ACK
0.1450420000,432,90,6,Write,ACK
0.1452540000,434,90,94,Write,ACK
0.1453490000,434,90,0,Write,ACK
0.1455600000,436,90,94,Write,ACK
0.1457670000,437,90,0,Read,NAK
0.1459800000,439,90,94,Write,ACK
0.1460750000,439,90,0,Write,ACK
0.1462860000,441,90,69,Write,ACK
0.1463820000,441,90,12,Write,ACK
0.1465930000,443,90,94,Write,ACK
0.1466880000,443,90,0,Write,ACK
0.1468990000,445,90,94,Write,ACK
0.1471060000,446,90,0,Read,NAK
0.1473190000,448,90,94,Write,ACK
0.1474150000,448,90,0,Write,ACK
0.1476260000,450,90,70,Write,ACK
0.1477210000,450,90,6,Write,ACK
0.1479320000,452,90,94,Write,ACK
0.1480280000,452,90,0,Write,ACK
0.1482390000,454,90,94,Write,ACK
0.1484460000,455,90,0,Read,NAK
0.1486590000,457,90,94,Write,ACK
0.1487540000,457,90,0,Write,ACK
0.1489650000,459,90,71,Write,ACK
0.1490610000,459,90,12,Write,ACK
0.1492720000,461,90,94,Write,ACK
0.1493670000,461,90,0,Write,ACK
0.1495780000,463,90,94,Write,ACK
0.1497850000,464,90,0,Read,NAK
0.1499980000,466,90,94,Write,ACK
0.1500930000,466,90,0,Write,ACK
0.1503040000,468,90,72,Write,ACK
0.1504000000,468,90,6,Write,ACK
0.1506110000,470,90,94,Write,ACK
0.1507060000,470,90,0,Write,ACK
0.1509170000,472,90,94,Write,ACK
0.1511240000,473,90,0,Read,NAK
0.1513370000,475,90,94,Write,ACK
0.1514330000,475,90,0,Write,ACK
0.1516440000,477,90,73,Write,ACK
0.1517390000,477,90,12,Write,ACK
0.1519500000,479,90,94,Write,ACK
0.1520460000,479,90,0,Write,ACK
0.1522570000,481,90,94,Write,ACK
0.1524640000,482,90,0,Read,NAK
0.1526770000,484,90,94,Write,ACK
0.1527720000,484,90,0,Write,ACK
0.1529830000,486,90,74,Write,ACK
0.1530780000,486,90,6,Write,ACK
0.1532900000,488,90,94,Write,ACK
0.1533850000,488,90,0,Write,ACK
0.1535960000,490,90,94,Write,ACK
0.1538030000,491,90,0,Read,NAK
0.1540160000,493,90,94,Write,ACK
0.1541110000,493,90,0,Write,ACK
0.1543220000,495,90,75,Write,ACK
0.1544180000,495,90,12,Write,ACK
0.1546290000,497,90,94,Write,ACK
0.1547240000,497,90,0,Write,ACK
0.1549360000,499,90,94,Write,ACK
0.1551430000,500,90,0,Read,NAK
0.1553560000,502,90,94,Write,ACK
0.1554520000,502,90,0,Write,ACK
0.1556630000,504,90,76,Write,ACK
0.1557580000,504,90,6,Write,ACK
0.1559690000,506,90,94,Write,ACK
0.1560650000,506,90,0,Write,ACK
0.1562760000,508,90,94,Write,ACK
0.1564830000,509,90,0,Read,NAK
0.1566960000,511,90,94,Write,ACK
0.1567910000,511,90,0,Write,ACK
0.1570020000,513,90,77,Write,ACK
0.1570970000,513,90,12,Write,ACK
0.1573090000,515,90,94,Write,ACK
0.1574040000,515,90,0,Write,ACK
0.1576150000,517,90,94,Write,ACK
0.1578220000,518,90,0,Read,NAK
0.1580350000,520,90,94,Write,ACK
0.1581300000,520,90,0,Write,ACK
0.1583410000,522,90,78,Write,ACK
0.1584370000,522,90,6,Write,ACK
0.1586480000,524,90,94,Write,ACK
0.1587430000,524,90,0,Write,ACK
0.1589540000,526,90,94,Write,ACK
0.1591610000,527,90,0,Read,NAK
0.1593740000,529,90,94,Write,ACK
0.1594700000,529,90,0,Write,ACK
0.1596810000,531,90,79,Write,ACK
0.1597760000,531,90,12,Write,ACK
0.1599870000,533,90,94,Write,ACK
0.1600830000,533,90,0,Write,ACK
0.1602940000,535,90,94,Write,ACK
0.1605000000,536,90,0,Read,NAK
0.1607130000,538,90,94,Write,ACK
0.1608090000,538,90,0,Write,ACK
0.1610200000,540,90,80,Write,ACK
0.1611150000,540,90,6,Write,ACK
0.1613260000,542,90,94,Write,ACK
0.1614220000,542,90,0,Write,ACK
0.1616330000,544,90,94,Write,ACK
0.1618400000,545,90,0,Read,NAK
0.1620530000,547,90,94,Write,ACK
0.1621480000,547,90,0,Write,ACK
0.1623590000,549,90,81,Write,ACK
0.1624540000,549,90,12,Write,ACK
0.1626660000,551,90,94,Write,ACK
0.1627610000,551,90,0,Write,ACK
0.1629720000,553,90,94,Write,ACK
0.1631790000,554,90,0,Read,NAK
0.1633920000,556,90,94,Write,ACK
0.1634870000,556,90,0,Write,ACK
0.1636980000,558,90,82,Write,ACK
0.1637940000,558,90,6,Write,ACK
0.1640050000,560,90,94,Write,ACK
0.1641000000,560,90,0,Write,ACK
0.1643110000,562,90,94,Write,ACK
0.1645180000,563,90,0,Read,NAK
0.1647310000,565,90,94,Write,ACK
0.1648270000,565,90,0,Write,ACK
0.1650380000,567,90,83,Write,ACK
0.1651330000,567,90,12,Write,ACK
0.1653440000,569,90,94,Write,ACK
0.1654400000,569,90,0,Write,ACK
0.1656510000,571,90,94,Write,ACK
0.1658580000,572,90,0,Read,NAK
0.1660710000,574,90,94,Write,ACK
0.1661660000,574,90,0,Write,ACK
0.1663770000,576,90,84,Write,ACK
0.1664730000,576,90,6,Write,ACK
0.1666840000,578,90,94,Write,ACK
0.1667790000,578,90,0,Write,ACK
0.1669900000,580,90,94,Write,ACK
0.1671970000,581,90,0,Read,NAK
0.1674100000,583,90,94,Write,ACK
0.1675060000,583,90,0,Write,ACK
0.1677170000,585,90,85,Write,ACK
0.1678120000,585,90,12,Write,ACK
0.1680230000,587,90,94,Write,ACK
0.1681190000,587,90,0,Write,ACK
0.1683300000,589,90,94,Write,ACK
0.1685370000,590,90,0,Read,NAK
0.1687500000,592,90,94,Write,ACK
0.1688450000,592,90,0,Write,ACK
0.1690560000,594,90,86,Write,ACK
0.1691510000,594,90,6,Write,ACK
0.1693630000,596,90,94,Write,ACK
0.1694580000,596,90,0,Write,ACK
0.1696690000,598,90,94,Write,ACK
0.1698760000,599,90,0,Read,NAK
0.1700890000,601,90,94,Write,ACK
0.1701840000,601,90,0,Write,ACK
0.1703950000,603,90,87,Write,ACK
0.1704910000,603,90,12,Write,ACK
0.1707020000,605,90,94,Write,ACK
0.1707970000,605,90,0,Write,ACK
0.1710090000,607,90,94,Write,ACK
0.1712150000,608,90,0,Read,NAK
0.1714280000,610,90,94,Write,ACK
0.1715240000,610,90,0,Write,ACK
0.1717350000,612,90,88,Write,ACK
0.1718300000,612,90,6,Write,ACK
0.1720410000,614,90,94,Write,ACK
0.1721370000,614,90,0,Write,ACK
0.1723480000,616,90,94,Write,ACK
0.1725550000,617,90,0,Read,NAK
0.1727680000,619,90,94,Write,ACK
0.1728630000,619,90,0,Write,ACK
0.1730740000,621,90,43,Write,ACK
0.1731700000,621,90,1,Write,ACK
0.1733810000,623,90,94,Write,ACK
0.1734760000,623,90,0,Write,ACK
0.1736870000,625,90,94,Write,ACK
0.1738980000,626,90,0,Read,NAK
0.1741110000,628,90,94,Write,ACK
0.1742070000,628,90,0,Write,ACK
0.1744180000,630,90,44,Write,ACK
0.1745130000,630,90,1,Write,ACK
0.1747250000,632,90,94,Write,ACK
0.1748200000,632,90,0,Write,ACK
0.1750310000,634,90,94,Write,ACK
0.1752380000,635,90,0,Read,NAK
0.1754510000,637,90,94,Write,ACK
0.1755460000,637,90,0,Write,ACK
0.1757570000,639,90,45,Write,ACK
0.1758530000,639,90,14,Write,ACK
0.1760640000,641,90,94,Write,ACK
0.1761590000,641,90,0,Write,ACK
0.1763710000,643,90,94,Write,ACK
0.1765770000,644,90,0,Read,NAK
0.1767900000,646,90,94,Write,ACK
0.1768860000,646,90,0,Write,ACK
0.1770970000,648,90,46,Write,ACK
0.1771920000,648,90,0,Write,ACK
0.1774030000,650,90,94,Write,ACK
0.1774990000,650,90,0,Write,ACK
0.1777100000,652,90,94,Write,ACK
0.1779170000,653,90,0,Read,NAK
0.1781300000,655,90,94,Write,ACK
0.1782250000,655,90,0,Write,ACK
0.1784370000,657,90,47,Write,ACK
0.1785320000,657,90,1,Write,ACK
0.1787430000,659,90,94,Write,ACK
0.1788390000,659,90,0,Write,ACK
0.1790500000,661,90,94,Write,ACK
0.1792560000,662,90,0,Read,NAK
0.1794700000,664,90,94,Write,ACK
0.1795650000,664,90,0,Write,ACK
0.1797760000,666,90,48,Write,ACK
0.1798710000,666,90,5,Write,ACK
0.1800830000,668,90,94,Write,ACK
0.1801780000,668,90,0,Write,ACK
0.1803890000,670,90,94,Write,ACK
0.1805960000,671,90,0,Read,NAK
0.1808090000,673,90,94,Write,ACK
0.1809040000,673,90,0,Write,ACK
0.1811150000,675,90,49,Write,ACK
0.1812110000,675,90,1,Write,ACK
0.1814220000,677,90,94,Write,ACK
0.1815180000,677,90,0,Write,ACK
0.1817290000,679,90,94,Write,ACK
0.1819350000,680,90,0,Read,NAK
0.1821490000,682,90,94,Write,ACK
0.1822440000,682,90,0,Write,ACK
0.1824550000,684,90,50,Write,ACK
0.1825510000,684,90,0,Write,ACK
0.1827620000,686,90,94,Write,ACK
0.1828570000,686,90,0,Write,ACK
0.1830680000,688,90,94,Write,ACK
0.1832750000,689,90,0,Read,NAK
0.1834880000,691,90,94,Write,ACK
0.1835830000,691,90,0,Write,ACK
0.1837950000,693,90,51,Write,ACK
0.1838900000,693,90,0,Write,ACK
0.1841010000,695,90,94,Write,ACK
0.1841970000,695,90,0,Write,ACK
0.1844080000,697,90,94,Write,ACK
0.1846140000,698,90,0,Read,NAK
0.1848270000,700,90,94,Write,ACK
0.1849230000,700,90,0,Write,ACK
0.1851340000,702,90,52,Write,ACK
0.1852290000,702,90,0,Write,ACK
0.1854410000,704,90,94,Write,ACK
0.1855360000,704,90,0,Write,ACK
0.1857470000,706,90,94,Write,ACK
0.1859540000,707,90,0,Read,NAK
0.1861670000,709,90,94,Write,ACK
0.1862620000,709,90,0,Write,ACK
0.1864740000,711,90,53,Write,ACK
0.1865690000,711,90,0,Write,ACK
0.1867800000,713,90,94,Write,ACK
0.1868760000,713,90,0,Write,ACK
0.1870870000,715,90,94,Write,ACK
0.1872930000,716,90,0,Read,NAK
0.1875070000,718,90,94,Write,ACK
0.1876020000,718,90,0,Write,ACK
0.1878130000,720,90,91,Write,ACK
0.1879090000,720,90,0,Write,ACK
0.1881200000,722,90,94,Write,ACK
0.1882150000,722,90,0,Write,ACK
0.1884260000,724,90,94,Write,ACK
0.1886330000,725,90,0,Read,NAK
0.1888460000,727,90,94,Write,ACK
0.1889410000,727,90,0,Write,ACK
0.1891520000,729,90,92,Write,ACK
0.1892480000,729,90,16,Write,ACK
0.1894590000,731,90,94,Write,ACK
0.1895540000,731,90,0,Write,ACK
0.1897660000,733,90,94,Write,ACK
0.1899720000,734,90,0,Read,NAK
0.1901850000,736,90,94,Write,ACK
0.1902810000,736,90,0,Write,ACK
0.1904920000,738,90,93,Write,ACK
0.1905870000,738,90,32,Write,ACK
0.1907980000,740,90,94,Write,ACK
0.1908940000,740,90,0,Write,ACK
0.1911050000,742,90,94,Write,ACK
0.1913120000,743,90,0,Read,NAK
0.1915250000,745,90,94,Write,ACK
0.1916200000,745,90,140,Write,ACK
0.1921370000,747,90,0,Write,ACK
0.1923440000,748,90,0,Read,NAK
0.1931330000,750,90,1,Write,ACK
0.1933390000,751,90,0,Read,NAK
0.1942570000,753,90,2,Write,ACK
0.1944640000,754,90,0,Read,NAK
0.1952580000,756,90,3,Write,ACK
0.1954640000,757,90,0,Read,NAK
0.1962580000,759,90,4,Write,ACK
0.1964650000,760,90,197,Read,NAK
0.1972580000,762,90,5,Write,ACK
0.1974650000,763,90,0,Read,NAK
0.1982580000,765,90,6,Write,ACK
0.1984650000,766,90,172,Read,NAK
0.1992590000,768,90,7,Write,ACK
0.1994650000,769,90,0,Read,NAK
0.2002590000,771,90,8,Write,ACK
0.2004650000,772,90,174,Read,NAK
0.2012590000,774,90,9,Write,ACK
0.2014660000,775,90,0,Read,NAK
0.2022590000,777,90,10,Write,ACK
0.2024660000,778,90,173,Read,NAK
0.2032590000,780,90,11,Write,ACK
0.2034660000,781,90,0,Read,NAK
0.2042590000,783,90,12,Write,ACK
0.2044660000,784,90,176,Read,NAK
0.2052600000,786,90,13,Write,ACK
0.2054660000,787,90,0,Read,NAK
0.2062600000,789,90,14,Write,ACK
0.2064670000,790,90,177,Read,NAK
0.2072600000,792,90,15,Write,ACK
0.2074670000,793,90,0,Read,NAK
0.2082610000,795,90,16,Write,ACK
0.2084680000,796,90,196,Read,NAK
0.2091780000,798,90,17,Write,ACK
0.2093850000,799,90,0,Read,NAK
0.2102620000,801,90,18,Write,ACK
0.2104680000,802,90,65,Read,NAK
0.2112620000,804,90,19,Write,ACK
0.2114690000,805,90,1,Read,NAK
0.2122620000,807,90,20,Write,ACK
0.2124690000,808,90,59,Read,NAK
0.2132620000,810,90,21,Write,ACK
0.2134690000,811,90,1,Read,NAK
0.2142620000,813,90,22,Write,ACK
0.2144690000,814,90,51,Read,NAK
0.2152630000,816,90,23,Write,ACK
0.2154690000,817,90,1,Read,NAK
0.2162630000,819,90,24,Write,ACK
0.2164700000,820,90,45,Read,NAK
0.2172630000,822,90,25,Write,ACK
0.2174700000,823,90,1,Read,NAK
0.2182630000,825,90,26,Write,ACK
0.2184700000,826,90,65,Read,NAK
0.2192630000,828,90,27,Write,ACK
0.2194700000,829,90,1,Read,NAK
0.2202640000,831,90,28,Write,ACK
0.2204700000,832,90,0,Read,NAK
0.2212640000,834,90,29,Write,ACK
0.2214700000,835,90,0,Read,NAK
0.2222640000,837,90,30,Write,ACK
0.2224710000,838,90,48,Read,NAK
0.2232640000,840,90,31,Write,ACK
0.2234710000,841,90,40,Read,NAK
0.2242640000,843,90,32,Write,ACK
0.2244710000,844,90,40,Read,NAK
0.2251410000,846,90,33,Write,ACK
0.2253470000,847,90,40,Read,NAK
0.2262650000,849,90,34,Write,ACK
0.2264720000,850,90,40,Read,NAK
0.2272650000,852,90,35,Write,ACK
0.2274720000,853,90,40,Read,NAK
0.2282650000,855,90,36,Write,ACK
0.2284720000,856,90,48,Read,NAK
0.2292660000,858,90,37,Write,ACK
0.2294720000,859,90,80,Read,NAK
0.2302660000,861,90,38,Write,ACK
0.2304730000,862,90,72,Read,NAK
0.2312660000,864,90,39,Write,ACK
0.2314730000,865,90,72,Read,NAK
0.2322660000,867,90,40,Write,ACK
0.2324730000,868,90,72,Read,NAK
0.2332670000,870,90,41,Write,ACK
0.2334740000,871,90,80,Read,NAK
0.2342670000,873,90,42,Write,ACK
0.2344730000,874,90,0,Read,NAK
0.2352670000,876,90,43,Write,ACK
0.2354740000,877,90,1,Read,NAK
0.2362670000,879,90,44,Write,ACK
0.2364740000,880,90,1,Read,NAK
0.2372670000,882,90,45,Write,ACK
0.2374740000,883,90,14,Read,NAK
0.2382670000,885,90,46,Write,ACK
0.2384740000,886,90,0,Read,NAK
0.2392680000,888,90,47,Write,ACK
0.2394740000,889,90,1,Read,NAK
0.2402680000,891,90,48,Write,ACK
0.2404750000,892,90,5,Read,NAK
0.2411860000,894,90,49,Write,ACK
0.2413930000,895,90,1,Read,NAK
0.2422680000,897,90,50,Write,ACK
0.2424750000,898,90,0,Read,NAK
0.2432690000,900,90,51,Write,ACK
0.2434760000,901,90,0,Read,NAK
0.2442690000,903,90,52,Write,ACK
0.2444750000,904,90,0,Read,NAK
0.2452690000,906,90,53,Write,ACK
0.2454760000,907,90,0,Read,NAK
0.2462690000,909,90,54,Write,ACK
0.2464760000,910,90,0,Read,NAK
0.2472700000,912,90,55,Write,ACK
0.2474760000,913,90,0,Read,NAK
0.2482700000,915,90,56,Write,ACK
0.2484760000,916,90,0,Read,NAK
0.2492700000,918,90,57,Write,ACK
0.2494770000,919,90,0,Read,NAK
0.2502700000,921,90,58,Write,ACK
0.2504770000,922,90,0,Read,NAK
0.2512700000,924,90,59,Write,ACK
0.2514770000,925,90,0,Read,NAK
0.2522710000,927,90,60,Write,ACK
0.2524770000,928,90,0,Read,NAK
0.2533310000,930,90,61,Write,ACK
0.2535380000,931,90,0,Read,NAK
0.2542710000,933,90,62,Write,ACK
0.2544780000,934,90,0,Read,NAK
0.2552710000,936,90,63,Write,ACK
0.2554780000,937,90,0,Read,NAK
0.2562710000,939,90,64,Write,ACK
0.2564780000,940,90,0,Read,NAK
0.2571470000,942,90,65,Write,ACK
0.2573540000,943,90,12,Read,NAK
0.2582720000,945,90,66,Write,ACK
0.2584790000,946,90,6,Read,NAK
0.2592720000,948,90,67,Write,ACK
0.2594790000,949,90,12,Read,NAK
0.2602720000,951,90,68,Write,ACK
0.2604790000,952,90,6,Read,NAK
0.2612730000,954,90,69,Write,ACK
0.2614790000,955,90,12,Read,NAK
0.2622730000,957,90,70,Write,ACK
0.2624790000,958,90,6,Read,NAK
0.2632730000,960,90,71,Write,ACK
0.2634800000,961,90,12,Read,NAK
0.2642730000,963,90,72,Write,ACK
0.2644800000,964,90,6,Read,NAK
0.2652740000,966,90,73,Write,ACK
0.2654800000,967,90,12,Read,NAK
0.2662740000,969,90,74,Write,ACK
0.2664810000,970,90,6,Read,NAK
0.2673330000,972,90,75,Write,ACK
0.2675400000,973,90,12,Read,NAK
0.2682740000,975,90,76,Write,ACK
0.2684810000,976,90,6,Read,NAK
0.2692740000,978,90,77,Write,ACK
0.2694810000,979,90,12,Read,NAK
0.2702740000,981,90,78,Write,ACK
0.2704810000,982,90,6,Read,NAK
0.2712750000,984,90,79,Write,ACK
0.2714810000,985,90,12,Read,NAK
0.2722750000,987,90,80,Write,ACK
0.2724820000,988,90,6,Read,NAK
0.2731920000,990,90,81,Write,ACK
0.2733990000,991,90,12,Read,NAK
0.2742750000,993,90,82,Write,ACK
0.2744820000,994,90,6,Read,NAK
0.2752760000,996,90,83,Write,ACK
0.2754820000,997,90,12,Read,NAK
0.2762760000,999,90,84,Write,ACK
0.2764830000,1000,90,6,Read,NAK
0.2772760000,1002,90,85,Write,ACK
0.2774830000,1003,90,12,Read,NAK
0.2782760000,1005,90,86,Write,ACK
0.2784830000,1006,90,6,Read,NAK
0.2792760000,1008,90,87,Write,ACK
0.2794830000,1009,90,12,Read,NAK
0.2802770000,1011,90,88,Write,ACK
0.2804830000,1012,90,6,Read,NAK
0.2812770000,1014,90,89,Write,ACK
0.2814840000,1015,90,0,Read,NAK
0.2822770000,1017,90,90,Write,ACK
0.2824840000,1018,90,0,Read,NAK
0.2832770000,1020,90,91,Write,ACK
0.2834840000,1021,90,0,Read,NAK
0.2842770000,1023,90,92,Write,ACK
0.2844840000,1024,90,16,Read,NAK
0.2852780000,1026,90,93,Write,ACK
0.2854850000,1027,90,32,Read,NAK
0.2862780000,1029,90,94,Write,ACK
0.2864850000,1030,90,140,Read,NAK
0.2872780000,1032,90,95,Write,ACK
0.2874850000,1033,90,0,Read,NAK
0.2882780000,1035,90,96,Write,ACK
0.2884850000,1036,90,0,Read,NAK
0.2891540000,1038,90,97,Write,ACK
0.2893610000,1039,90,0,Read,NAK
0.2902790000,1041,90,98,Write,ACK
0.2904860000,1042,90,0,Read,NAK
0.2912790000,1044,90,99,Write,ACK
0.2914860000,1045,90,0,Read,NAK
0.2922790000,1047,90,100,Write,ACK
0.2924860000,1048,90,0,Read,NAK
0.2932790000,1050,90,101,Write,ACK
0.2934860000,1051,90,0,Read,NAK
0.2942800000,1053,90,102,Write,ACK
0.2944860000,1054,90,0,Read,NAK
0.2952800000,1056,90,103,Write,ACK
0.2954870000,1057,90,0,Read,NAK
0.2962800000,1059,90,104,Write,ACK
0.2964870000,1060,90,0,Read,NAK
0.2972800000,1062,90,105,Write,ACK
0.2974870000,1063,90,0,Read,NAK
0.2982810000,1065,90,106,Write,ACK
0.2984870000,1066,90,0,Read,NAK
0.2993400000,1068,90,107,Write,ACK
0.2995470000,1069,90,0,Read,NAK
0.3002810000,1071,90,108,Write,ACK
0.3004880000,1072,90,0,Read,NAK
0.3012810000,1074,90,109,Write,ACK
0.3014880000,1075,90,0,Read,NAK
0.3022810000,1077,90,110,Write,ACK
0.3024880000,1078,90,0,Read,NAK
0.3032820000,1080,90,111,Write,ACK
0.3034880000,1081,90,0,Read,NAK
0.3042820000,1083,90,112,Write,ACK
0.3044890000,1084,90,0,Read,NAK
0.3051990000,1086,90,113,Write,ACK
0.3054060000,1087,90,0,Read,NAK
0.3062820000,1089,90,114,Write,ACK
0.3064890000,1090,90,0,Read,NAK
0.3072820000,1092,90,115,Write,ACK
0.3074890000,1093,90,0,Read,NAK
0.3082820000,1095,90,116,Write,ACK
0.3084890000,1096,90,0,Read,NAK
0.3092830000,1098,90,117,Write,ACK
0.3094900000,1099,90,0,Read,NAK
0.3102830000,1101,90,118,Write,ACK
0.3104900000,1102,90,0,Read,NAK
0.3112830000,1104,90,119,Write,ACK
0.3114900000,1105,90,0,Read,NAK
0.3122830000,1107,90,120,Write,ACK
0.3124900000,1108,90,0,Read,NAK
0.3132840000,1110,90,121,Write,ACK
0.3134900000,1111,90,0,Read,NAK
0.3142840000,1113,90,122,Write,ACK
0.3144910000,1114,90,0,Read,NAK
0.3153440000,1116,90,123,Write,ACK
0.3155510000,1117,90,0,Read,NAK
0.3162840000,1119,90,124,Write,ACK
0.3164910000,1120,90,0,Read,NAK
0.3172850000,1122,90,125,Write,ACK
0.3174910000,1123,90,0,Read,NAK
0.3182850000,1125,90,126,Write,ACK
0.3184910000,1126,90,0,Read,NAK
0.3690730000,1128,90,30,Write,ACK
0.3692800000,1129,90,49,Read,NAK
0.3695610000,1131,90,31,Write,ACK
0.3697680000,1132,90,40,Read,NAK
0.3701300000,1134,90,32,Write,ACK
0.3703370000,1135,90,40,Read,NAK
0.3706180000,1137,90,33,Write,ACK
0.3708240000,1138,90,40,Read,NAK
0.3711300000,1140,90,34,Write,ACK
0.3713370000,1141,90,40,Read,NAK
0.3716180000,1143,90,35,Write,ACK
0.3718240000,1144,90,40,Read,NAK
0.3721300000,1146,90,36,Write,ACK
0.3723370000,1147,90,49,Read,NAK
0.3726180000,1149,90,37,Write,ACK
0.3728250000,1150,90,80,Read,NAK
0.3731300000,1152,90,38,Write,ACK
0.3733370000,1153,90,72,Read,NAK
0.3736190000,1155,90,39,Write,ACK
0.3738260000,1156,90,72,Read,NAK
0.3741310000,1158,90,40,Write,ACK
0.3743370000,1159,90,72,Read,NAK
0.3746200000,1161,90,41,Write,ACK
0.3748270000,1162,90,80,Read,NAK
0.3752050000,1164,90,4,Write,ACK
0.3754110000,1165,90,197,Read,ACK
0.3755090000,1165,90,0,Read,NAK
0.3757480000,1167,90,6,Write,ACK
0.3759540000,1168,90,172,Read,ACK
0.3760520000,1168,90,0,Read,NAK
0.3762910000,1170,90,8,Write,ACK
0.3764970000,1171,90,174,Read,ACK
0.3765940000,1171,90,0,Read,NAK
0.3768330000,1173,90,10,Write,ACK
0.3770400000,1174,90,173,Read,ACK
0.3771370000,1174,90,0,Read,NAK
0.3773760000,1176,90,12,Write,ACK
0.3775830000,1177,90,176,Read,ACK
0.3776800000,1177,90,0,Read,NAK
0.3779190000,1179,90,14,Write,ACK
0.3781260000,1180,90,177,Read,ACK
0.3782230000,1180,90,0,Read,NAK
0.3784620000,1182,90,16,Write,ACK
0.3786690000,1183,90,196,Read,ACK
0.3787660000,1183,90,0,Read,NAK
0.3790070000,1185,90,18,Write,ACK
0.3792140000,1186,90,65,Read,ACK
0.3793110000,1186,90,1,Read,NAK
0.3795510000,1188,90,20,Write,ACK
0.3797570000,1189,90,59,Read,ACK
0.3798540000,1189,90,1,Read,NAK
0.3801110000,1191,90,22,Write,ACK
0.3803180000,1192,90,51,Read,ACK
0.3804150000,1192,90,1,Read,NAK
0.3806540000,1194,90,24,Write,ACK
0.3808610000,1195,90,45,Read,ACK
0.3809580000,1195,90,1,Read,NAK
0.3811980000,1197,90,26,Write,ACK
0.3814050000,1198,90,65,Read,ACK
0.3815020000,1198,90,1,Read,NAK
0.4320910000,1200,90,4,Write,ACK
0.4322980000,1201,90,197,Read,ACK
0.4323950000,1201,90,0,Read,NAK
0.4326340000,1203,90,6,Write,ACK
0.4328410000,1204,90,172,Read,ACK
0.4329380000,1204,90,0,Read,NAK
0.4331770000,1206,90,8,Write,ACK
0.4333840000,1207,90,174,Read,ACK
0.4334810000,1207,90,0,Read,NAK
0.4337200000,1209,90,10,Write,ACK
0.4339270000,1210,90,174,Read,ACK
0.4340240000,1210,90,0,Read,NAK
0.4342630000,1212,90,12,Write,ACK
0.4344690000,1213,90,176,Read,ACK
0.4345670000,1213,90,0,Read,NAK
0.4348060000,1215,90,14,Write,ACK
0.4350120000,1216,90,177,Read,ACK
0.4351090000,1216,90,0,Read,NAK
0.4353480000,1218,90,16,Write,ACK
0.4355550000,1219,90,196,Read,ACK
0.4356520000,1219,90,0,Read,NAK
0.4358910000,1221,90,18,Write,ACK
0.4360980000,1222,90,65,Read,ACK
0.4361950000,1222,90,1,Read,NAK
0.4364350000,1224,90,20,Write,ACK
0.4366420000,1225,90,59,Read,ACK
0.4367390000,1225,90,1,Read,NAK
0.4369840000,1227,90,22,Write,ACK
0.4371910000,1228,90,51,Read,ACK
0.4372880000,1228,90,1,Read,NAK
0.4375280000,1230,90,24,Write,ACK
0.4377340000,1231,90,45,Read,ACK
0.4378320000,1231,90,1,Read,NAK
0.4380710000,1233,90,26,Write,ACK
0.4382780000,1234,90,64,Read,ACK
0.4383750000,1234,90,1,Read,NAK
0.4891050000,1236,90,4,Write,ACK
0.4893110000,1237,90,197,Read,ACK
0.4894080000,1237,90,0,Read,NAK
0.4896470000,1239,90,6,Write,ACK
0.4898540000,1240,90,172,Read,ACK
0.4899510000,1240,90,0,Read,NAK
0.4901900000,1242,90,8,Write,ACK
0.4903970000,1243,90,174,Read,ACK
0.4904940000,1243,90,0,Read,NAK
0.4907330000,1245,90,10,Write,ACK
0.4909400000,1246,90,173,Read,ACK
0.4910370000,1246,90,0,Read,NAK
0.4912760000,1248,90,12,Write,ACK
0.4914830000,1249,90,176,Read,ACK
0.4915800000,1249,90,0,Read,NAK
0.4918190000,1251,90,14,Write,ACK
0.4920250000,1252,90,177,Read,ACK
0.4921230000,1252,90,0,Read,NAK
0.4923620000,1254,90,16,Write,ACK
0.4925680000,1255,90,197,Read,ACK
0.4926660000,1255,90,0,Read,NAK
0.4929070000,1257,90,18,Write,ACK
0.4931130000,1258,90,65,Read,ACK
0.4932110000,1258,90,1,Read,NAK
0.4934500000,1260,90,20,Write,ACK
0.4936570000,1261,90,59,Read,ACK
0.4937540000,1261,90,1,Read,NAK
0.4939980000,1263,90,22,Write,ACK
0.4942050000,1264,90,51,Read,ACK
0.4943020000,1264,90,1,Read,NAK
0.4945410000,1266,90,24,Write,ACK
0.4947480000,1267,90,45,Read,ACK
0.4948450000,1267,90,1,Read,NAK
0.4950850000,1269,90,26,Write,ACK
0.4952920000,1270,90,64,Read,ACK
0.4953890000,1270,90,1,Read,NAK
0.5461170000,1272,90,4,Write,ACK
0.5463230000,1273,90,197,Read,ACK
0.5464200000,1273,90,0,Read,NAK
0.5466590000,1275,90,6,Write,ACK
0.5468660000,1276,90,172,Read,ACK
0.5469630000,1276,90,0,Read,NAK
0.5472020000,1278,90,8,Write,ACK
0.5474090000,1279,90,174,Read,ACK
0.5475060000,1279,90,0,Read,NAK
0.5477450000,1281,90,10,Write,ACK
0.5479520000,1282,90,173,Read,ACK
0.5480490000,1282,90,0,Read,NAK
0.5482880000,1284,90,12,Write,ACK
0.5484940000,1285,90,176,Read,ACK
0.5485920000,1285,90,0,Read,NAK
0.5488310000,1287,90,14,Write,ACK
0.5490370000,1288,90,177,Read,ACK
0.5491340000,1288,90,0,Read,NAK
0.5493730000,1290,90,16,Write,ACK
0.5495800000,1291,90,196,Read,ACK
0.5496770000,1291,90,0,Read,NAK
0.5499180000,1293,90,18,Write,ACK
0.5501250000,1294,90,65,Read,ACK
0.5502220000,1294,90,1,Read,NAK
0.5504620000,1296,90,20,Write,ACK
0.5506690000,1297,90,59,Read,ACK
0.5507660000,1297,90,1,Read,NAK
0.5510090000,1299,90,22,Write,ACK
0.5512160000,1300,90,51,Read,ACK
0.5513130000,1300,90,1,Read,NAK
0.5515530000,1302,90,24,Write,ACK
0.5517600000,1303,90,45,Read,ACK
0.5518570000,1303,90,1,Read,NAK
0.5520970000,1305,90,26,Write,ACK
0.5523030000,1306,90,64,Read,ACK
0.5524010000,1306,90,1,Read,NAK
0.6031290000,1308,90,4,Write,ACK
0.6033360000,1309,90,197,Read,ACK
0.6034330000,1309,90,0,Read,NAK
0.6036720000,1311,90,6,Write,ACK
0.6038780000,1312,90,172,Read,ACK
0.6039750000,1312,90,0,Read,NAK
0.6042140000,1314,90,8,Write,ACK
0.6044210000,1315,90,174,Read,ACK
0.6045180000,1315,90,0,Read,NAK
0.6047570000,1317,90,10,Write,ACK
0.6049640000,1318,90,173,Read,ACK
0.6050610000,1318,90,0,Read,NAK
0.6053000000,1320,90,12,Write,ACK
0.6055070000,1321,90,176,Read,ACK
0.6056040000,1321,90,0,Read,NAK
0.6058430000,1323,90,14,Write,ACK
0.6060500000,1324,90,177,Read,ACK
0.6061470000,1324,90,0,Read,NAK
0.6063860000,1326,90,16,Write,ACK
0.6065920000,1327,90,197,Read,ACK
0.6066900000,1327,90,0,Read,NAK
0.6069290000,1329,90,18,Write,ACK
0.6071350000,1330,90,65,Read,ACK
0.6072330000,1330,90,1,Read,NAK
0.6074720000,1332,90,20,Write,ACK
0.6076790000,1333,90,59,Read,ACK
0.6077760000,1333,90,1,Read,NAK
0.6080200000,1335,90,22,Write,ACK
0.6082260000,1336,90,51,Read,ACK
0.6083240000,1336,90,1,Read,NAK
0.6085630000,1338,90,24,Write,ACK
0.6087700000,1339,90,45,Read,ACK
0.6088670000,1339,90,1,Read,NAK
0.6091070000,1341,90,26,Write,ACK
0.6093140000,1342,90,65,Read,ACK
0.6094110000,1342,90,1,Read,NAK
0.6601410000,1344,90,4,Write,ACK
0.6603480000,1345,90,197,Read,ACK
0.6604450000,1345,90,0,Read,NAK
0.6606840000,1347,90,6,Write,ACK
0.6608910000,1348,90,172,Read,ACK
0.6609880000,1348,90,0,Read,NAK
0.6612270000,1350,90,8,Write,ACK
0.6614340000,1351,90,174,Read,ACK
0.6615310000,1351,90,0,Read,NAK
0.6617700000,1353,90,10,Write,ACK
0.6619760000,1354,90,174,Read,ACK
0.6620730000,1354,90,0,Read,NAK
0.6623120000,1356,90,12,Write,ACK
0.6625190000,1357,90,176,Read,ACK
0.6626160000,1357,90,0,Read,NAK
0.6628570000,1359,90,14,Write,ACK
0.6630640000,1360,90,177,Read,ACK
0.6631610000,1360,90,0,Read,NAK
0.6634000000,1362,90,16,Write,ACK
0.6636070000,1363,90,196,Read,ACK
0.6637040000,1363,90,0,Read,NAK
0.6639430000,1365,90,18,Write,ACK
0.6641500000,1366,90,65,Read,ACK
0.6642470000,1366,90,1,Read,NAK
0.6644870000,1368,90,20,Write,ACK
0.6646930000,1369,90,59,Read,ACK
0.6647910000,1369,90,1,Read,NAK
0.6650340000,1371,90,22,Write,ACK
0.6652410000,1372,90,51,Read,ACK
0.6653380000,1372,90,1,Read,NAK
0.6655780000,1374,90,24,Write,ACK
0.6657840000,1375,90,45,Read,ACK
0.6658820000,1375,90,1,Read,NAK
0.6661210000,1377,90,26,Write,ACK
0.6663280000,1378,90,64,Read,ACK
0.6664250000,1378,90,1,Read,NAK
0.7171570000,1380,90,4,Write,ACK
0.7173630000,1381,90,197,Read,ACK
0.7174600000,1381,90,0,Read,NAK
0.7176990000,1383,90,6,Write,ACK
0.7179060000,1384,90,172,Read,ACK
0.7180030000,1384,90,0,Read,NAK
0.7182420000,1386,90,8,Write,ACK
0.7184490000,1387,90,174,Read,ACK
0.7185460000,1387,90,0,Read,NAK
0.7187850000,1389,90,10,Write,ACK
0.7189920000,1390,90,174,Read,ACK
0.7190890000,1390,90,0,Read,NAK
0.7193280000,1392,90,12,Write,ACK
0.7195350000,1393,90,176,Read,ACK
0.7196320000,1393,90,0,Read,NAK
0.7198710000,1395,90,14,Write,ACK
0.7200770000,1396,90,177,Read,ACK
0.7201750000,1396,90,0,Read,NAK
0.7204140000,1398,90,16,Write,ACK
0.7206200000,1399,90,196,Read,ACK
0.7207180000,1399,90,0,Read,NAK
0.7209570000,1401,90,18,Write,ACK
0.7211630000,1402,90,65,Read,ACK
0.7212610000,1402,90,1,Read,NAK
0.7215000000,1404,90,20,Write,ACK
0.7217070000,1405,90,59,Read,ACK
0.7218040000,1405,90,1,Read,NAK
0.7220480000,1407,90,22,Write,ACK
0.7222540000,1408,90,51,Read,ACK
0.7223520000,1408,90,1,Read,NAK
0.7225910000,1410,90,24,Write,ACK
0.7227980000,1411,90,45,Read,ACK
0.7228950000,1411,90,1,Read,NAK
0.7231350000,1413,90,26,Write,ACK
0.7233420000,1414,90,64,Read,ACK
0.7234390000,1414,90,1,Read,NAK
0.7741650000,1416,90,4,Write,ACK
0.7743710000,1417,90,197,Read,ACK
0.7744680000,1417,90,0,Read,NAK
0.7747070000,1419,90,6,Write,ACK
0.7749140000,1420,90,172,Read,ACK
0.7750110000,1420,90,0,Read,NAK
0.7752500000,1422,90,8,Write,ACK
0.7754570000,1423,90,174,Read,ACK
0.7755540000,1423,90,0,Read,NAK
0.7757950000,1425,90,10,Write,ACK
0.7760020000,1426,90,174,Read,ACK
0.7760990000,1426,90,0,Read,NAK
0.7763380000,1428,90,12,Write,ACK
0.7765440000,1429,90,176,Read,ACK
0.7766420000,1429,90,0,Read,NAK
0.7768810000,1431,90,14,Write,ACK
0.7770870000,1432,90,177,Read,ACK
0.7771840000,1432,90,0,Read,NAK
0.7774230000,1434,90,16,Write,ACK
0.7776300000,1435,90,196,Read,ACK
0.7777270000,1435,90,0,Read,NAK
0.7779660000,1437,90,18,Write,ACK
0.7781730000,1438,90,65,Read,ACK
0.7782700000,1438,90,1,Read,NAK
0.7785100000,1440,90,20,Write,ACK
0.7787170000,1441,90,59,Read,ACK
0.7788140000,1441,90,1,Read,NAK
0.7790570000,1443,90,22,Write,ACK
0.7792640000,1444,90,51,Read,ACK
0.7793610000,1444,90,1,Read,NAK
0.7796010000,1446,90,24,Write,ACK
0.7798080000,1447,90,45,Read,ACK
0.7799050000,1447,90,1,Read,NAK
0.7801440000,1449,90,26,Write,ACK
0.7803510000,1450,90,65,Read,ACK
0.7804480000,1450,90,1,Read,NAK
0.8311780000,1452,90,4,Write,ACK
0.8313840000,1453,90,197,Read,ACK
0.8314810000,1453,90,0,Read,NAK
0.8317200000,1455,90,6,Write,ACK
0.8319270000,1456,90,172,Read,ACK
0.8320240000,1456,90,0,Read,NAK
0.8322630000,1458,90,8,Write,ACK
0.8324700000,1459,90,174,Read,ACK
0.8325670000,1459,90,0,Read,NAK
0.8328060000,1461,90,10,Write,ACK
0.8330130000,1462,90,174,Read,ACK
0.8331100000,1462,90,0,Read,NAK
0.8333490000,1464,90,12,Write,ACK
0.8335560000,1465,90,176,Read,ACK
0.8336530000,1465,90,0,Read,NAK
0.8338920000,1467,90,14,Write,ACK
0.8340990000,1468,90,177,Read,ACK
0.8341960000,1468,90,0,Read,NAK
0.8344350000,1470,90,16,Write,ACK
0.8346420000,1471,90,196,Read,ACK
0.8347390000,1471,90,0,Read,NAK
0.8349780000,1473,90,18,Write,ACK
0.8351850000,1474,90,65,Read,ACK
0.8352820000,1474,90,1,Read,NAK
0.8355210000,1476,90,20,Write,ACK
0.8357280000,1477,90,59,Read,ACK
0.8358250000,1477,90,1,Read,NAK
0.8360690000,1479,90,22,Write,ACK
0.8362760000,1480,90,51,Read,ACK
0.8363730000,1480,90,1,Read,NAK
0.8366120000,1482,90,24,Write,ACK
0.8368190000,1483,90,45,Read,ACK
0.8369160000,1483,90,1,Read,NAK
0.8371560000,1485,90,26,Write,ACK
0.8373630000,1486,90,65,Read,ACK
0.8374600000,1486,90,1,Read,NAK
0.8881880000,1488,90,4,Write,ACK
0.8883950000,1489,90,197,Read,ACK
0.8884920000,1489,90,0,Read,NAK
0.8887330000,1491,90,6,Write,ACK
0.8889390000,1492,90,172,Read,ACK
0.8890360000,1492,90,0,Read,NAK
0.8892750000,1494,90,8,Write,ACK
0.8894820000,1495,90,174,Read,ACK
0.8895790000,1495,90,0,Read,NAK
0.8898180000,1497,90,10,Write,ACK
0.8900250000,1498,90,174,Read,ACK
0.8901220000,1498,90,0,Read,NAK
0.8903610000,1500,90,12,Write,ACK
0.8905680000,1501,90,176,Read,ACK
0.8906650000,1501,90,0,Read,NAK
0.8909040000,1503,90,14,Write,ACK
0.8911110000,1504,90,177,Read,ACK
0.8912080000,1504,90,0,Read,NAK
0.8914470000,1506,90,16,Write,ACK
0.8916540000,1507,90,196,Read,ACK
0.8917510000,1507,90,0,Read,NAK
0.8919900000,1509,90,18,Write,ACK
0.8921970000,1510,90,65,Read,ACK
0.8922940000,1510,90,1,Read,NAK
0.8925330000,1512,90,20,Write,ACK
0.8927400000,1513,90,59,Read,ACK
0.8928370000,1513,90,1,Read,NAK
0.8930810000,1515,90,22,Write,ACK
0.8932880000,1516,90,51,Read,ACK
0.8933850000,1516,90,1,Read,NAK
0.8936240000,1518,90,24,Write,ACK
0.8938310000,1519,90,45,Read,ACK
0.8939280000,1519,90,1,Read,NAK
0.8941680000,1521,90,26,Write,ACK
0.8943750000,1522,90,64,Read,ACK
0.8944720000,1522,90,1,Read,NAK
0.9452000000,1524,90,4,Write,ACK
0.9454060000,1525,90,197,Read,ACK
0.9455030000,1525,90,0,Read,NAK
0.9457420000,1527,90,6,Write,ACK
0.9459490000,1528,90,172,Read,ACK
0.9460460000,1528,90,0,Read,NAK
0.9462850000,1530,90,8,Write,ACK
0.9464920000,1531,90,174,Read,ACK
0.9465890000,1531,90,0,Read,NAK
0.9468280000,1533,90,10,Write,ACK
0.9470350000,1534,90,174,Read,ACK
0.9471320000,1534,90,0,Read,NAK
0.9473710000,1536,90,12,Write,ACK
0.9475780000,1537,90,176,Read,ACK
0.9476750000,1537,90,0,Read,NAK
0.9479140000,1539,90,14,Write,ACK
0.9481210000,1540,90,177,Read,ACK
0.9482180000,1540,90,0,Read,NAK
0.9484570000,1542,90,16,Write,ACK
0.9486640000,1543,90,196,Read,ACK
0.9487610000,1543,90,0,Read,NAK
0.9490000000,1545,90,18,Write,ACK
0.9492070000,1546,90,65,Read,ACK
0.9493040000,1546,90,1,Read,NAK
0.9495440000,1548,90,20,Write,ACK
0.9497500000,1549,90,59,Read,ACK
0.9498480000,1549,90,1,Read,NAK
0.9500910000,1551,90,22,Write,ACK
0.9502980000,1552,90,51,Read,ACK
0.9503950000,1552,90,1,Read,NAK
0.9506350000,1554,90,24,Write,ACK
0.9508410000,1555,90,45,Read,ACK
0.9509390000,1555,90,1,Read,NAK
0.9511780000,1557,90,26,Write,ACK
0.9513850000,1558,90,65,Read,ACK
0.9514820000,1558,90,1,Read,NAK
